(1728394052.363803) vcan0 039#000C
(1728394052.363815) vcan0 095#800007F400000008
(1728394052.365073) vcan0 166#D0320018
(1728394052.366802) vcan0 158#0000000000000019
(1728394052.366858) vcan0 161#000005500108001C
(1728394052.366860) vcan0 191#010090A1410003
(1728394052.369484) vcan0 133#00000000A7
(1728394052.369551) vcan0 136#000200000000002A
(1728394052.369553) vcan0 13A#0000000000000028
(1728394052.369555) vcan0 13F#000000050000002E
(1728394052.369557) vcan0 164#0000C01AA8000004
(1728394052.369558) vcan0 17C#0000000010000021
(1728394052.369560) vcan0 18E#00006B
(1728394052.369562) vcan0 1CF#80050000003C
(1728394052.369565) vcan0 1DC#02000039
(1728394052.369867) vcan0 244#0000000194
(1728394052.370666) vcan0 183#0000000500001024
(1728394052.370726) vcan0 143#6B6B00E0
(1728394052.373997) vcan0 095#800007F400000017
(1728394052.374065) vcan0 1A4#0000000800000010
(1728394052.374152) vcan0 1AA#7FFF000000006711
(1728394052.374233) vcan0 1B0#000F0000000157
(1728394052.374235) vcan0 1D0#000000000000000A
(1728394052.374237) vcan0 039#001B
(1728394052.376611) vcan0 166#D0320027
(1728394052.379159) vcan0 158#0000000000000028
(1728394052.380344) vcan0 161#000005500108002B
(1728394052.380346) vcan0 191#010090A1410012
(1728394052.380348) vcan0 133#00000000B6
(1728394052.380350) vcan0 136#0002000000000039
(1728394052.380351) vcan0 13A#0000000000000037
(1728394052.380353) vcan0 13F#000000050000003D
(1728394052.380356) vcan0 164#0000C01AA8000013
(1728394052.380359) vcan0 17C#0000000010000030
(1728394052.380361) vcan0 18E#00007A
(1728394052.380363) vcan0 294#040B0002CF5A000E
(1728394052.380365) vcan0 21E#03E83745220601
(1728394052.380367) vcan0 183#0000000300001035
(1728394052.382454) vcan0 244#0000000150
(1728394052.384595) vcan0 143#6B6B00FF
(1728394052.384614) vcan0 095#800007F400000026
(1728394052.386031) vcan0 166#D0320036
(1728394052.387490) vcan0 158#0000000000000037
(1728394052.387578) vcan0 161#000005500108003A
(1728394052.387580) vcan0 191#010090A1410021
(1728394052.387582) vcan0 133#0000000089
(1728394052.387584) vcan0 136#000200000000000C
(1728394052.387586) vcan0 13A#000000000000000A
(1728394052.388777) vcan0 13F#0000000500000000
(1728394052.388892) vcan0 164#0000C01AA8000022
(1728394052.388895) vcan0 17C#0000000010000003
(1728394052.388897) vcan0 18E#00004D
(1728394052.388899) vcan0 1CF#80050000000F
(1728394052.388901) vcan0 1DC#0200000C
(1728394052.393260) vcan0 183#0000000A00001001
(1728394052.393343) vcan0 039#002A
(1728394052.393346) vcan0 143#6B6B00C2
(1728394052.393348) vcan0 095#800007F400000035
(1728394052.393350) vcan0 1A4#000000080000002F
(1728394052.393352) vcan0 1AA#7FFF000000006720
(1728394052.395816) vcan0 1B0#000F0000000166
(1728394052.395916) vcan0 1D0#000000000000000A
(1728394052.395920) vcan0 166#D0320009
(1728394052.396528) vcan0 244#00000001BA
(1728394052.397177) vcan0 158#000000000000000A
(1728394052.397218) vcan0 161#000005500108000D
(1728394052.397221) vcan0 191#010090A1410030
(1728394052.397223) vcan0 133#0000000098
(1728394052.397225) vcan0 136#000200000000001B
(1728394052.398501) vcan0 13A#0000000000000019
(1728394052.398550) vcan0 13F#000000050000001F
(1728394052.398553) vcan0 164#0000C01AA8000031
(1728394052.398554) vcan0 17C#0000000010000012
(1728394052.398556) vcan0 18E#00005C
(1728394052.400584) vcan0 183#0000000700001013
(1728394052.400607) vcan0 143#6B6B00D1
(1728394052.403495) vcan0 095#800007F400000008
(1728394052.403601) vcan0 039#0039
(1728394052.407418) vcan0 166#D0320018
(1728394052.407486) vcan0 158#0000000000000019
(1728394052.407493) vcan0 161#000005500108001C
(1728394052.407499) vcan0 191#010090A1410003
(1728394052.407505) vcan0 133#00000000A7
(1728394052.407510) vcan0 136#000200000000002A
(1728394052.407515) vcan0 13A#0000000000000028
(1728394052.408654) vcan0 244#0000000110
(1728394052.408653) vcan0 13F#000000050000002E
(1728394052.408865) vcan0 164#0000C01AA8000004
(1728394052.408875) vcan0 17C#0000000010000021
(1728394052.408881) vcan0 18E#00006B
(1728394052.408887) vcan0 1CF#80050000001E
(1728394052.408892) vcan0 1DC#0200001B
(1728394052.410237) vcan0 183#0000000500001024
(1728394052.410252) vcan0 143#6B6B00E0
(1728394052.411451) vcan0 333#0000000000002D
(1728394052.413519) vcan0 095#800007F400000017
(1728394052.413572) vcan0 1A4#000000080000003E
(1728394052.413575) vcan0 1AA#7FFF00000000683E
(1728394052.413577) vcan0 1B0#000F0000000175
(1728394052.415518) vcan0 1D0#000000000000000A
(1728394052.415570) vcan0 166#D0320027
(1728394052.416666) vcan0 158#0000000000000028
(1728394052.416741) vcan0 161#000005500108002B
(1728394052.416744) vcan0 191#010090A1410012
(1728394052.417980) vcan0 133#00000000B6
(1728394052.418063) vcan0 136#0002000000000039
(1728394052.418065) vcan0 13A#0000000000000037
(1728394052.418067) vcan0 13F#000000050000003D
(1728394052.418069) vcan0 164#0000C01AA8000013
(1728394052.419560) vcan0 244#0000000160
(1728394052.419724) vcan0 17C#0000000010000030
(1728394052.419733) vcan0 18E#00007A
(1728394052.419735) vcan0 294#040B0002CF5A001D
(1728394052.419737) vcan0 21E#03E83745220610
(1728394052.421046) vcan0 183#0000000B0000103D
(1728394052.421234) vcan0 143#6B6B00FF
(1728394052.423774) vcan0 095#800007F400000026
(1728394052.423831) vcan0 039#000C
(1728394052.428077) vcan0 166#D0320036
(1728394052.428093) vcan0 158#0000000000000037
(1728394052.428095) vcan0 161#000005500108003A
(1728394052.428097) vcan0 191#010010A1410029
(1728394052.428099) vcan0 133#0000000089
(1728394052.428101) vcan0 136#000200000000000C
(1728394052.428102) vcan0 13A#000000000000000A
(1728394052.428105) vcan0 13F#0000000500000000
(1728394052.428110) vcan0 164#0000C01AA8000022
(1728394052.429430) vcan0 17C#0000000010000003
(1728394052.430229) vcan0 18E#00004D
(1728394052.430232) vcan0 1CF#80050000002D
(1728394052.430234) vcan0 1DC#0200002A
(1728394052.430236) vcan0 320#000021
(1728394052.430238) vcan0 324#7465000000000E29
(1728394052.430239) vcan0 37C#FD00FD00097F0029
(1728394052.430243) vcan0 183#0000000800001003
(1728394052.434080) vcan0 244#0000000186
(1728394052.434196) vcan0 143#6B6B00C2
(1728394052.434204) vcan0 095#800007F400000035
(1728394052.434206) vcan0 1A4#0000000800000001
(1728394052.434209) vcan0 1AA#7FFF000000006801
(1728394052.434211) vcan0 1B0#000F0000000148
(1728394052.434214) vcan0 1D0#000000000000000A
(1728394052.437587) vcan0 166#D0320009
(1728394052.437604) vcan0 158#000000000000000A
(1728394052.437605) vcan0 161#000005500108000D
(1728394052.437608) vcan0 039#001B
(1728394052.437611) vcan0 191#010010A1410038
(1728394052.437613) vcan0 133#0000000098
(1728394052.437616) vcan0 136#000200000000001B
(1728394052.437617) vcan0 13A#0000000000000019
(1728394052.438850) vcan0 13F#000000050000001F
(1728394052.438919) vcan0 164#0000C01AA8000031
(1728394052.438921) vcan0 17C#0000000010000012
(1728394052.438923) vcan0 18E#00005C
(1728394052.438924) vcan0 305#8026
(1728394052.441522) vcan0 183#0000000600001014
(1728394052.441577) vcan0 143#6B6B00D1
(1728394052.443145) vcan0 095#800007F400000008
(1728394052.446546) vcan0 166#D0320018
(1728394052.446654) vcan0 158#0000000000000019
(1728394052.446657) vcan0 161#000005500108001C
(1728394052.447840) vcan0 191#010010A141000B
(1728394052.447990) vcan0 133#00000000A7
(1728394052.447993) vcan0 136#000200000000002A
(1728394052.447995) vcan0 13A#0000000000000028
(1728394052.447997) vcan0 13F#000000050000002E
(1728394052.447998) vcan0 164#0000C01AA8000004
(1728394052.449869) vcan0 17C#0000000010000021
(1728394052.449920) vcan0 18E#00006B
(1728394052.449923) vcan0 1CF#80050000003C
(1728394052.449925) vcan0 1DC#02000039
(1728394052.449927) vcan0 183#0000000C0000102D
(1728394052.450199) vcan0 244#00000001E2
(1728394052.452743) vcan0 143#6B6B00E0
(1728394052.452769) vcan0 039#002A
(1728394052.452772) vcan0 095#800007F400000017
(1728394052.453976) vcan0 1A4#0000000800000010
(1728394052.454049) vcan0 1AA#7FFF000000006711
(1728394052.454052) vcan0 1B0#000F0000000157
(1728394052.454054) vcan0 1D0#000000000000000A
(1728394052.455844) vcan0 166#D0320027
(1728394052.458888) vcan0 158#0000000000000028
(1728394052.462424) vcan0 161#000005500108002B
(1728394052.463127) vcan0 244#000000013A
(1728394052.463495) vcan0 191#010010A141001A
(1728394052.463498) vcan0 133#00000000B6
(1728394052.463500) vcan0 136#0002000000000039
(1728394052.463501) vcan0 13A#0000000000000037
(1728394052.463503) vcan0 13F#000000050000003D
(1728394052.463504) vcan0 164#0000C01AA8000013
(1728394052.463507) vcan0 17C#0000000010000030
(1728394052.463508) vcan0 18E#00007A
(1728394052.463510) vcan0 294#040B0002CF5A002C
(1728394052.463512) vcan0 21E#03E8374522062F
(1728394052.463513) vcan0 309#00000000000000B1
(1728394052.463515) vcan0 183#000000090000103F
(1728394052.463517) vcan0 143#6B6B00FF
(1728394052.463520) vcan0 095#800007F400000026
(1728394052.465998) vcan0 166#D0320036
(1728394052.467591) vcan0 158#0000000000000037
(1728394052.467721) vcan0 161#000005500108003A
(1728394052.467724) vcan0 191#010010A1410029
(1728394052.467727) vcan0 039#0039
(1728394052.467730) vcan0 133#0000000089
(1728394052.467732) vcan0 136#000200000000000C
(1728394052.467735) vcan0 13A#000000000000000A
(1728394052.469484) vcan0 13F#0000000500000000
(1728394052.469615) vcan0 164#0000C01AA8000022
(1728394052.469619) vcan0 17C#0000000010000003
(1728394052.469621) vcan0 18E#00004D
(1728394052.469623) vcan0 1CF#80050000000F
(1728394052.469626) vcan0 1DC#0200000C
(1728394052.471527) vcan0 183#0000000E0000100D
(1728394052.471633) vcan0 143#6B6B00C2
(1728394052.473087) vcan0 095#800007F400000035
(1728394052.473308) vcan0 1A4#000000080000002F
(1728394052.473352) vcan0 1AA#7FFF000000006720
(1728394052.475496) vcan0 1B0#000F0000000166
(1728394052.475565) vcan0 244#0000000105
(1728394052.478263) vcan0 1D0#000000000000000A
(1728394052.479128) vcan0 166#D0320009
(1728394052.479131) vcan0 158#000000000000000A
(1728394052.479132) vcan0 161#000005500108000D
(1728394052.479134) vcan0 191#010010A1410038
(1728394052.479136) vcan0 133#0000000098
(1728394052.479138) vcan0 136#000200000000001B
(1728394052.479140) vcan0 13A#0000000000000019
(1728394052.479142) vcan0 13F#000000050000001F
(1728394052.479143) vcan0 164#0000C01AA8000031
(1728394052.479145) vcan0 17C#0000000010000012
(1728394052.479147) vcan0 18E#00005C
(1728394052.480712) vcan0 039#000C
(1728394052.481442) vcan0 183#0000000A00001010
(1728394052.481447) vcan0 143#6B6B00D1
(1728394052.482685) vcan0 095#800007F800000004
(1728394052.486258) vcan0 166#D0320018
(1728394052.486337) vcan0 158#0000000000000019
(1728394052.489842) vcan0 161#000005500108001C
(1728394052.490112) vcan0 244#00000001AF
(1728394052.490225) vcan0 191#010010A141000B
(1728394052.490235) vcan0 133#00000000A7
(1728394052.490241) vcan0 136#000200000000002A
(1728394052.490246) vcan0 13A#0000000000000028
(1728394052.490251) vcan0 13F#000000050000002E
(1728394052.490256) vcan0 164#0000C01AA8000004
(1728394052.490262) vcan0 17C#0000000010000021
(1728394052.490267) vcan0 18E#00006B
(1728394052.490272) vcan0 1CF#80050000001E
(1728394052.490277) vcan0 1DC#0200001B
(1728394052.490283) vcan0 183#0000000700001022
(1728394052.490288) vcan0 143#6B6B00E0
(1728394052.492836) vcan0 095#800007F800000013
(1728394052.494378) vcan0 1A4#000000080000003E
(1728394052.494448) vcan0 1AA#7FFF00000000683E
(1728394052.494456) vcan0 1B0#000F0000000175
(1728394052.494463) vcan0 1D0#000000000000000A
(1728394052.496672) vcan0 166#D0320027
(1728394052.496808) vcan0 039#001B
(1728394052.496817) vcan0 158#0000000000000028
(1728394052.496824) vcan0 161#000005500108002B
(1728394052.496832) vcan0 191#010010A141001A
(1728394052.498535) vcan0 133#00000000B6
(1728394052.498610) vcan0 136#0002000000000039
(1728394052.498618) vcan0 13A#0000000000000037
(1728394052.498625) vcan0 13F#000000050000003D
(1728394052.498631) vcan0 164#0000C01AA8000013
(1728394052.498638) vcan0 17C#0000000010000030
(1728394052.498645) vcan0 18E#00007A
(1728394052.498651) vcan0 294#040B0002CF5A003B
(1728394052.501566) vcan0 21E#03E8374522063E
(1728394052.501693) vcan0 183#0000000D0000103B
(1728394052.501701) vcan0 143#6B6B00FF
(1728394052.502002) vcan0 244#00000001E0
(1728394052.502956) vcan0 095#800007F800000022
(1728394052.506127) vcan0 166#D0320036
(1728394052.508062) vcan0 158#0000000000000037
(1728394052.508140) vcan0 161#000005500108003A
(1728394052.508148) vcan0 191#010010A1410029
(1728394052.508155) vcan0 133#0000000089
(1728394052.508162) vcan0 136#000200000000000C
(1728394052.508168) vcan0 13A#000000000000000A
(1728394052.508175) vcan0 13F#0000000500000000
(1728394052.508182) vcan0 164#0000C01AA8000022
(1728394052.508188) vcan0 17C#0000000010000003
(1728394052.509802) vcan0 18E#00004D
(1728394052.509844) vcan0 1CF#80050000002D
(1728394052.509855) vcan0 1DC#0200002A
(1728394052.509865) vcan0 039#002A
(1728394052.509875) vcan0 183#0000000900001002
(1728394052.511618) vcan0 143#6B6B00C2
(1728394052.511700) vcan0 333#0000000000003C
(1728394052.513452) vcan0 095#800007F800000031
(1728394052.513521) vcan0 1A4#0000000800000001
(1728394052.513528) vcan0 1AA#7FFF000000006801
(1728394052.513535) vcan0 1B0#000F0000000148
(1728394052.513768) vcan0 244#000000018B
(1728394052.514778) vcan0 1D0#000000000000000A
(1728394052.516564) vcan0 166#D0320009
(1728394052.516640) vcan0 158#000000000000000A
(1728394052.516643) vcan0 161#000005500108000D
(1728394052.517751) vcan0 191#010010A1410038
(1728394052.517839) vcan0 133#0000000098
(1728394052.517842) vcan0 136#000200000000001B
(1728394052.517844) vcan0 13A#0000000000000019
(1728394052.517846) vcan0 13F#000000050000001F
(1728394052.520048) vcan0 164#0000C01AA8000031
(1728394052.520149) vcan0 17C#0000000010000012
(1728394052.520152) vcan0 18E#00005C
(1728394052.522384) vcan0 183#0000000E0000101C
(1728394052.522495) vcan0 143#6B6B00D1
(1728394052.525848) vcan0 095#800007F800000004
(1728394052.525866) vcan0 166#D0320018
(1728394052.527113) vcan0 244#0000000159
(1728394052.528618) vcan0 158#0000000000000019
(1728394052.528624) vcan0 161#000005500108001C
(1728394052.528626) vcan0 191#010010A141000B
(1728394052.528633) vcan0 133#00000000A7
(1728394052.528634) vcan0 136#000200000000002A
(1728394052.528636) vcan0 13A#0000000000000028
(1728394052.528638) vcan0 13F#000000050000002E
(1728394052.528640) vcan0 164#0000C01AA8000004
(1728394052.528643) vcan0 17C#0000000010000021
(1728394052.528646) vcan0 18E#00006B
(1728394052.528648) vcan0 1CF#80050000003C
(1728394052.528650) vcan0 039#0039
(1728394052.531533) vcan0 1DC#02000039
(1728394052.531541) vcan0 320#000030
(1728394052.531544) vcan0 324#7465000000000E38
(1728394052.531547) vcan0 37C#FD00FD00097F0038
(1728394052.531549) vcan0 40C#0000000004000013
(1728394052.531552) vcan0 183#0000000A0000102F
(1728394052.531555) vcan0 454#23EF18
(1728394052.531559) vcan0 143#6B6B00E0
(1728394052.533475) vcan0 095#800007F800000013
(1728394052.533524) vcan0 1A4#0000000800000010
(1728394052.533526) vcan0 1AA#7FFF000000006711
(1728394052.533528) vcan0 1B0#000F0000000157
(1728394052.535089) vcan0 1D0#000000000000000A
(1728394052.535185) vcan0 166#D0320027
(1728394052.538136) vcan0 158#0000000000000028
(1728394052.538235) vcan0 161#000005500108002B
(1728394052.538243) vcan0 191#010010A141001A
(1728394052.538251) vcan0 133#00000000B6
(1728394052.538258) vcan0 136#0002000000000039
(1728394052.538305) vcan0 13A#0000000000000037
(1728394052.538313) vcan0 13F#000000050000003D
(1728394052.538320) vcan0 164#0000C01AA8000013
(1728394052.538327) vcan0 17C#0000000010000030
(1728394052.538334) vcan0 18E#00007A
(1728394052.539684) vcan0 244#00000001F6
(1728394052.539758) vcan0 294#040B0002CF5A000E
(1728394052.539765) vcan0 21E#03E83745220601
(1728394052.541888) vcan0 183#0000000700001031
(1728394052.541897) vcan0 143#6B6B00FF
(1728394052.541899) vcan0 039#000C
(1728394052.544354) vcan0 305#8035
(1728394052.544368) vcan0 095#800007F800000022
(1728394052.545538) vcan0 166#D0320036
(1728394052.548509) vcan0 158#0000000000000037
(1728394052.548606) vcan0 161#000005500108003A
(1728394052.548609) vcan0 191#010010A1410029
(1728394052.548611) vcan0 133#0000000089
(1728394052.548613) vcan0 136#000200000000000C
(1728394052.548615) vcan0 13A#000000000000000A
(1728394052.548616) vcan0 13F#0000000500000000
(1728394052.548621) vcan0 164#0000C01AA8000022
(1728394052.548623) vcan0 17C#0000000010000003
(1728394052.548624) vcan0 18E#00004D
(1728394052.548626) vcan0 1CF#80050000000F
(1728394052.550467) vcan0 1DC#0200000C
(1728394052.550518) vcan0 183#0000000D0000100E
(1728394052.550521) vcan0 143#6B6B00C2
(1728394052.551364) vcan0 244#000000011F
(1728394052.554313) vcan0 095#800007F800000031
(1728394052.554378) vcan0 1A4#000000080000002F
(1728394052.554381) vcan0 1AA#7FFF000000006720
(1728394052.554383) vcan0 1B0#000F0000000166
(1728394052.554385) vcan0 1D0#000000000000000A
(1728394052.556219) vcan0 166#D0320009
(1728394052.557777) vcan0 158#000000000000000A
(1728394052.557825) vcan0 161#000005500108000D
(1728394052.557828) vcan0 039#001B
(1728394052.557830) vcan0 191#010010A1410038
(1728394052.557831) vcan0 133#0000000098
(1728394052.557833) vcan0 136#000200000000001B
(1728394052.557835) vcan0 13A#0000000000000019
(1728394052.557836) vcan0 13F#000000050000001F
(1728394052.563055) vcan0 164#0000C01AA8000031
(1728394052.563476) vcan0 244#00000001C1
(1728394052.564284) vcan0 17C#0000000010000012
(1728394052.564289) vcan0 18E#00005C
(1728394052.564291) vcan0 309#0000000000000084
(1728394052.564293) vcan0 428#01040000521C2F
(1728394052.564295) vcan0 405#0000040000000029
(1728394052.564297) vcan0 183#0000000900001011
(1728394052.564299) vcan0 143#6B6B00D1
(1728394052.564301) vcan0 095#800007F800000004
(1728394052.566155) vcan0 166#D0320018
(1728394052.567311) vcan0 158#0000000000000019
(1728394052.567357) vcan0 161#000005500108001C
(1728394052.567360) vcan0 191#010010A141000B
(1728394052.567362) vcan0 133#00000000A7
(1728394052.567364) vcan0 136#000200000000002A
(1728394052.568535) vcan0 13A#0000000000000028
(1728394052.568615) vcan0 13F#000000050000002E
(1728394052.568624) vcan0 164#0000C01AA8000004
(1728394052.568630) vcan0 17C#0000000010000021
(1728394052.568638) vcan0 18E#00006B
(1728394052.568645) vcan0 1CF#80050000001E
(1728394052.570354) vcan0 1DC#0200001B
(1728394052.570455) vcan0 183#0000000600001023
(1728394052.570466) vcan0 143#6B6B00E0
(1728394052.572000) vcan0 039#002A
(1728394052.574480) vcan0 095#800007F800000013
(1728394052.575905) vcan0 1A4#000000080000003E
(1728394052.577869) vcan0 244#000000015E
(1728394052.581642) vcan0 166#D0320009
(1728394052.583652) vcan0 158#000000000000000A
(1728394052.583758) vcan0 161#000005500108000D
(1728394052.583762) vcan0 191#010090A1410030
(1728394052.583765) vcan0 18E#00005C
(1728394052.583768) vcan0 133#0000000098
(1728394052.583771) vcan0 136#000200000000001B
(1728394052.583774) vcan0 13A#0000000000000019
(1728394052.583777) vcan0 13F#000000050000001F
(1728394052.583782) vcan0 164#0000C01AA8000031
(1728394052.587212) vcan0 17C#0000000010000012
(1728394052.587313) vcan0 183#0000000E0000101C
(1728394052.587316) vcan0 039#000C
(1728394052.587318) vcan0 143#6B6B00D1
(1728394052.588809) vcan0 095#800007F400000008
(1728394052.589139) vcan0 244#00000001B7
(1728394052.592501) vcan0 166#D0320018
(1728394052.592899) vcan0 158#0000000000000019
(1728394052.592969) vcan0 161#000005500108001C
(1728394052.592980) vcan0 191#010090A1410003
(1728394052.592990) vcan0 164#0000C01AA8000004
(1728394052.593000) vcan0 133#00000000A7
(1728394052.593009) vcan0 136#000200000000002A
(1728394052.595509) vcan0 13A#0000000000000028
(1728394052.595591) vcan0 13F#000000050000002E
(1728394052.595599) vcan0 17C#0000000010000021
(1728394052.595606) vcan0 18E#00006B
(1728394052.595613) vcan0 1CF#80050000003C
(1728394052.595620) vcan0 1DC#02000039
(1728394052.595627) vcan0 320#000030
(1728394052.595634) vcan0 324#7465000000000E38
(1728394052.595641) vcan0 183#0000000A0000102F
(1728394052.595647) vcan0 37C#FD00FD00097F0038
(1728394052.598490) vcan0 143#6B6B00E0
(1728394052.598634) vcan0 095#800007F400000017
(1728394052.598645) vcan0 1A4#0000000800000010
(1728394052.600511) vcan0 244#000000018C
(1728394052.601726) vcan0 1AA#7FFF000000006810
(1728394052.601921) vcan0 1B0#000F0000000157
(1728394052.601929) vcan0 1D0#000000000000000A
(1728394052.601937) vcan0 039#001B
(1728394052.601943) vcan0 166#D0320027
(1728394052.601950) vcan0 158#0000000000000028
(1728394052.603611) vcan0 161#000005500108002B
(1728394052.603710) vcan0 191#010090A1410012
(1728394052.603717) vcan0 164#0000C01AA8000013
(1728394052.603725) vcan0 133#00000000B6
(1728394052.603732) vcan0 136#0002000000000039
(1728394052.603739) vcan0 13A#0000000000000037
(1728394052.603746) vcan0 13F#000000050000003D
(1728394052.605496) vcan0 17C#0000000010000030
(1728394052.605533) vcan0 18E#00007A
(1728394052.605540) vcan0 294#040B0002CF5A000E
(1728394052.605547) vcan0 21E#03E83745220601
(1728394052.605553) vcan0 183#0000000F00001039
(1728394052.607434) vcan0 143#6B6B00FF
(1728394052.609070) vcan0 095#800007F400000026
(1728394052.610987) vcan0 166#D0320036
(1728394052.611340) vcan0 244#000000012B
(1728394052.612974) vcan0 158#0000000000000037
(1728394052.613071) vcan0 161#000005500108003A
(1728394052.613079) vcan0 164#0000C01AA8000022
(1728394052.613086) vcan0 191#010090A1410021
(1728394052.613093) vcan0 133#0000000089
(1728394052.613099) vcan0 136#000200000000000C
(1728394052.614846) vcan0 13A#000000000000000A
(1728394052.614907) vcan0 13F#0000000500000000
(1728394052.614914) vcan0 17C#0000000010000003
(1728394052.614921) vcan0 18E#00004D
(1728394052.614927) vcan0 1CF#80050000000F
(1728394052.614933) vcan0 1DC#0200000C
(1728394052.614939) vcan0 183#0000000B00001000
(1728394052.618025) vcan0 143#6B6B00C2
(1728394052.618169) vcan0 095#800007F400000035
(1728394052.620092) vcan0 1A4#000000080000002F
(1728394052.620202) vcan0 1AA#7FFF00000000682F
(1728394052.620210) vcan0 1B0#000F0000000166
(1728394052.620217) vcan0 1D0#000000000000000A
(1728394052.622003) vcan0 166#D0320009
(1728394052.622167) vcan0 158#000000000000000A
(1728394052.622177) vcan0 161#000005500108000D
(1728394052.629481) vcan0 244#00000001F8
(1728394052.630850) vcan0 191#010090A1410030
(1728394052.630868) vcan0 164#0000C01AA8000031
(1728394052.630874) vcan0 133#0000000098
(1728394052.630880) vcan0 136#000200000000001B
(1728394052.630885) vcan0 039#002A
(1728394052.630890) vcan0 13A#0000000000000019
(1728394052.630895) vcan0 13F#000000050000001F
(1728394052.630901) vcan0 17C#0000000010000012
(1728394052.630906) vcan0 18E#00005C
(1728394052.630911) vcan0 309#0000000000000084
(1728394052.630918) vcan0 183#0000000800001012
(1728394052.630924) vcan0 143#6B6B00D1
(1728394052.630931) vcan0 095#800007F400000008
(1728394052.630936) vcan0 166#D0320018
(1728394052.632749) vcan0 158#0000000000000019
(1728394052.632818) vcan0 161#000005500108001C
(1728394052.632831) vcan0 191#010090A1410003
(1728394052.632837) vcan0 164#0000C01AA8000004
(1728394052.632843) vcan0 133#00000000A7
(1728394052.634196) vcan0 136#000200000000002A
(1728394052.634272) vcan0 13A#0000000000000028
(1728394052.634280) vcan0 13F#000000050000002E
(1728394052.634285) vcan0 17C#0000000010000021
(1728394052.634291) vcan0 18E#00006B
(1728394052.634296) vcan0 1CF#80050000001E
(1728394052.634307) vcan0 1DC#0200001B
(1728394052.636454) vcan0 183#0000000600001023
(1728394052.636543) vcan0 143#6B6B00E0
(1728394052.636550) vcan0 039#0039
(1728394052.639427) vcan0 095#800007F400000017
(1728394052.639719) vcan0 1A4#000000080000003E
(1728394052.639728) vcan0 1AA#7FFF00000000673F
(1728394052.639735) vcan0 1B0#000F0000000175
(1728394052.639742) vcan0 1D0#000000000000000A
(1728394052.640884) vcan0 166#D0320027
(1728394052.641743) vcan0 244#0000000112
(1728394052.643021) vcan0 158#0000000000000028
(1728394052.643042) vcan0 161#000005500108002B
(1728394052.643052) vcan0 191#010090A1410012
(1728394052.643062) vcan0 164#0000C01AA8000013
(1728394052.643072) vcan0 133#00000000B6
(1728394052.643081) vcan0 136#0002000000000039
(1728394052.644782) vcan0 13A#0000000000000037
(1728394052.644829) vcan0 13F#000000050000003D
(1728394052.644839) vcan0 17C#0000000010000030
(1728394052.644849) vcan0 18E#00007A
(1728394052.644859) vcan0 294#040B0002CF5A001D
(1728394052.644868) vcan0 21E#03E83745220610
(1728394052.647620) vcan0 183#0000000400001034
(1728394052.647701) vcan0 143#6B6B00FF
(1728394052.647712) vcan0 095#800007F400000026
(1728394052.651083) vcan0 166#D0320036
(1728394052.651122) vcan0 039#000C
(1728394052.653159) vcan0 158#0000000000000037
(1728394052.653331) vcan0 161#000005500108003A
(1728394052.653341) vcan0 164#0000C01AA8000022
(1728394052.653350) vcan0 191#010090A1410021
(1728394052.653359) vcan0 133#0000000089
(1728394052.653368) vcan0 136#000200000000000C
(1728394052.653377) vcan0 13A#000000000000000A
(1728394052.653441) vcan0 13F#0000000500000000
(1728394052.654300) vcan0 244#0000000144
(1728394052.655940) vcan0 17C#0000000010000003
(1728394052.655953) vcan0 18E#00004D
(1728394052.655955) vcan0 1CF#80050000002D
(1728394052.655956) vcan0 1DC#0200002A
(1728394052.655958) vcan0 183#0000000A00001001
(1728394052.657186) vcan0 143#6B6B00C2
(1728394052.661012) vcan0 095#800007F400000035
(1728394052.662810) vcan0 1A4#0000000800000001
(1728394052.662814) vcan0 1AA#7FFF000000006702
(1728394052.662816) vcan0 1B0#000F0000000148
(1728394052.662817) vcan0 1D0#000000000000000A
(1728394052.662820) vcan0 166#D0320009
(1728394052.662821) vcan0 158#000000000000000A
(1728394052.662823) vcan0 161#000005500108000D
(1728394052.662826) vcan0 191#010090A1410030
(1728394052.662829) vcan0 164#0000C01AA8000031
(1728394052.662832) vcan0 133#0000000098
(1728394052.664608) vcan0 136#000200000000001B
(1728394052.664666) vcan0 13A#0000000000000019
(1728394052.664670) vcan0 13F#000000050000001F
(1728394052.664673) vcan0 17C#0000000010000012
(1728394052.664678) vcan0 18E#00005C
(1728394052.664682) vcan0 039#001B
(1728394052.666514) vcan0 183#0000000700001013
(1728394052.666566) vcan0 143#6B6B00D1
(1728394052.668554) vcan0 095#800007F400000008
(1728394052.668568) vcan0 244#0000000100
(1728394052.671550) vcan0 166#D0320018
(1728394052.673028) vcan0 158#0000000000000019
(1728394052.673080) vcan0 161#000005500108001C
(1728394052.673083) vcan0 191#010090A1410003
(1728394052.673084) vcan0 164#0000C01AA8000004
(1728394052.673086) vcan0 133#00000000A7
(1728394052.673088) vcan0 136#000200000000002A
(1728394052.674339) vcan0 13A#0000000000000028
(1728394052.674413) vcan0 13F#000000050000002E
(1728394052.674422) vcan0 17C#0000000010000021
(1728394052.674430) vcan0 18E#00006B
(1728394052.674438) vcan0 1CF#80050000003C
(1728394052.674445) vcan0 1DC#02000039
(1728394052.675896) vcan0 183#0000000500001024
(1728394052.677438) vcan0 143#6B6B00E0
(1728394052.677532) vcan0 333#0000000000000F
(1728394052.679581) vcan0 095#800007F400000017
(1728394052.679677) vcan0 039#002A
(1728394052.679684) vcan0 1A4#0000000800000010
(1728394052.679689) vcan0 305#8017
(1728394052.679694) vcan0 1AA#7FFF000000006810
(1728394052.679698) vcan0 1B0#000F0000000157
(1728394052.679703) vcan0 1D0#000000000000000A
(1728394052.679959) vcan0 244#0000000142
(1728394052.681589) vcan0 166#D0320027
(1728394052.682738) vcan0 158#0000000000000028
(1728394052.682820) vcan0 161#000005500108002B
(1728394052.682827) vcan0 191#010090A1410012
(1728394052.682832) vcan0 18E#00007A
(1728394052.682837) vcan0 133#00000000B6
(1728394052.683951) vcan0 136#0002000000000039
(1728394052.684008) vcan0 13A#0000000000000037
(1728394052.684014) vcan0 13F#000000050000003D
(1728394052.684019) vcan0 164#0000C01AA8000013
(1728394052.684024) vcan0 17C#0000000010000030
(1728394052.685788) vcan0 294#040B0002CF5A002C
(1728394052.685893) vcan0 21E#03E8374522062F
(1728394052.685900) vcan0 183#0000000B0000103D
(1728394052.687822) vcan0 143#6B6B00FF
(1728394052.687883) vcan0 095#800007F400000026
(1728394052.690078) vcan0 039#0039
(1728394052.691660) vcan0 244#0000000139
(1728394052.692048) vcan0 166#D0320036
(1728394052.692065) vcan0 158#0000000000000037
(1728394052.692073) vcan0 161#000005500108003A
(1728394052.693679) vcan0 191#010010A1410029
(1728394052.693769) vcan0 164#0000C01AA8000022
(1728394052.693777) vcan0 133#0000000089
(1728394052.693783) vcan0 136#000200000000000C
(1728394052.693788) vcan0 13A#000000000000000A
(1728394052.693793) vcan0 13F#0000000500000000
(1728394052.693798) vcan0 17C#0000000010000003
(1728394052.695529) vcan0 18E#00004D
(1728394052.695617) vcan0 1CF#80050000000F
(1728394052.695624) vcan0 1DC#0200000C
(1728394052.695630) vcan0 320#000003
(1728394052.695636) vcan0 183#0000000800001003
(1728394052.695642) vcan0 324#7465000000000E0B
(1728394052.695650) vcan0 37C#FD00FD00097F000B
(1728394052.696932) vcan0 143#6B6B00C2
(1728394052.698694) vcan0 095#800007F400000035
(1728394052.698821) vcan0 1A4#000000080000002F
(1728394052.698831) vcan0 1AA#7FFF00000000682F
(1728394052.701456) vcan0 1B0#000F0000000166
(1728394052.701581) vcan0 1D0#000000000000000A
(1728394052.701588) vcan0 166#D0320009
(1728394052.704520) vcan0 158#000000000000000A
(1728394052.704599) vcan0 161#000005500108000D
(1728394052.704606) vcan0 191#010010A1410038
(1728394052.704612) vcan0 18E#00005C
(1728394052.704617) vcan0 133#0000000098
(1728394052.704622) vcan0 136#000200000000001B
(1728394052.704628) vcan0 13A#0000000000000019
(1728394052.704633) vcan0 13F#000000050000001F
(1728394052.704638) vcan0 164#0000C01AA8000031
(1728394052.704643) vcan0 17C#0000000010000012
(1728394052.704900) vcan0 244#00000001E4
(1728394052.705877) vcan0 183#0000000600001014
(1728394052.705896) vcan0 039#000C
(1728394052.707373) vcan0 143#6B6B00D1
(1728394052.712998) vcan0 095#800007F400000008
(1728394052.713749) vcan0 166#D0320018
(1728394052.713759) vcan0 158#0000000000000019
(1728394052.713764) vcan0 161#000005500108001C
(1728394052.713770) vcan0 191#010010A141000B
(1728394052.713775) vcan0 164#0000C01AA8000004
(1728394052.713780) vcan0 133#00000000A7
(1728394052.713786) vcan0 136#000200000000002A
(1728394052.713791) vcan0 13A#0000000000000028
(1728394052.713796) vcan0 13F#000000050000002E
(1728394052.713802) vcan0 17C#0000000010000021
(1728394052.713808) vcan0 18E#00006B
(1728394052.716419) vcan0 1CF#80050000001E
(1728394052.716570) vcan0 1DC#0200001B
(1728394052.716578) vcan0 183#0000000400001025
(1728394052.716584) vcan0 143#6B6B00E0
(1728394052.718535) vcan0 095#800007F400000017
(1728394052.718640) vcan0 1A4#000000080000003E
(1728394052.718783) vcan0 244#000000012D
(1728394052.718960) vcan0 188#00000000
(1728394052.719815) vcan0 039#001B
(1728394052.719848) vcan0 1AA#7FFF00000000673F
(1728394052.719856) vcan0 1B0#000F0000000175
(1728394052.719863) vcan0 1D0#000000000000000A
(1728394052.721043) vcan0 166#D0320027
(1728394052.722237) vcan0 158#0000000000000028
(1728394052.722262) vcan0 161#000005500108002B
(1728394052.722267) vcan0 191#010010A141001A
(1728394052.724859) vcan0 164#0000C01AA8000013
(1728394052.724926) vcan0 133#00000000B6
(1728394052.724934) vcan0 136#0002000000000039
(1728394052.724941) vcan0 13A#0000000000000037
(1728394052.724948) vcan0 13F#000000050000003D
(1728394052.724954) vcan0 17C#0000000010000030
(1728394052.724961) vcan0 18E#00007A
(1728394052.724968) vcan0 294#040B0002CF5A003B
(1728394052.724974) vcan0 21E#03E8374522063E
(1728394052.724981) vcan0 309#0000000000000093
(1728394052.727656) vcan0 183#0000000300001035
(1728394052.727746) vcan0 143#6B6B00FF
(1728394052.727754) vcan0 095#800007F400000026
(1728394052.730266) vcan0 244#00000001A2
(1728394052.731130) vcan0 166#D0320036
(1728394052.732375) vcan0 158#0000000000000037
(1728394052.732579) vcan0 161#000005500108003A
(1728394052.732637) vcan0 039#002A
(1728394052.732651) vcan0 191#010010A1410029
(1728394052.732658) vcan0 164#0000C01AA8000022
(1728394052.734282) vcan0 133#0000000089
(1728394052.734393) vcan0 136#000200000000000C
(1728394052.734401) vcan0 13A#000000000000000A
(1728394052.734408) vcan0 13F#0000000500000000
(1728394052.734414) vcan0 17C#0000000010000003
(1728394052.734421) vcan0 18E#00004D
(1728394052.734428) vcan0 1CF#80050000002D
(1728394052.734435) vcan0 1DC#0200002A
(1728394052.736511) vcan0 183#0000000A00001001
(1728394052.736597) vcan0 143#6B6B00C2
(1728394052.738331) vcan0 095#800007F400000035
(1728394052.740125) vcan0 1A4#0000000800000001
(1728394052.740186) vcan0 1AA#7FFF000000006702
(1728394052.740195) vcan0 1B0#000F0000000148
(1728394052.740203) vcan0 1D0#000000000000000A
(1728394052.741352) vcan0 166#D0320009
(1728394052.743464) vcan0 244#00000001B1
(1728394052.743681) vcan0 158#000000000000000A
(1728394052.743743) vcan0 161#000005500108000D
(1728394052.743746) vcan0 191#010010A1410038
(1728394052.743748) vcan0 18E#00005C
(1728394052.743749) vcan0 133#0000000098
(1728394052.743751) vcan0 136#000200000000001B
(1728394052.743753) vcan0 13A#0000000000000019
(1728394052.743756) vcan0 13F#000000050000001F
(1728394052.743757) vcan0 164#0000C01AA8000031
(1728394052.745068) vcan0 17C#0000000010000012
(1728394052.747293) vcan0 183#0000000700001013
(1728394052.747300) vcan0 143#6B6B00D1
(1728394052.750062) vcan0 095#800007F400000008
(1728394052.750153) vcan0 039#0039
(1728394052.751266) vcan0 166#D0320018
(1728394052.752745) vcan0 158#0000000000000019
(1728394052.752829) vcan0 161#000005500108001C
(1728394052.752832) vcan0 191#010010A141000B
(1728394052.752835) vcan0 164#0000C01AA8000004
(1728394052.752838) vcan0 133#00000000A7
(1728394052.754229) vcan0 136#000200000000002A
(1728394052.754296) vcan0 13A#0000000000000028
(1728394052.754298) vcan0 13F#000000050000002E
(1728394052.754300) vcan0 17C#0000000010000021
(1728394052.754302) vcan0 18E#00006B
(1728394052.754304) vcan0 1CF#80050000003C
(1728394052.754307) vcan0 1DC#02000039
(1728394052.756955) vcan0 244#0000000196
(1728394052.759352) vcan0 183#0000000500001024
(1728394052.759379) vcan0 143#6B6B00E0
(1728394052.759382) vcan0 095#800007F400000017
(1728394052.759384) vcan0 1A4#0000000800000010
(1728394052.759386) vcan0 1AA#7FFF000000006810
(1728394052.759388) vcan0 1B0#000F0000000157
(1728394052.759389) vcan0 1D0#000000000000000A
(1728394052.761270) vcan0 166#D0320027
(1728394052.761279) vcan0 039#000C
(1728394052.762404) vcan0 158#0000000000000028
(1728394052.762454) vcan0 161#000005500108002B
(1728394052.762457) vcan0 191#010010A141001A
(1728394052.764788) vcan0 164#0000C01AA8000013
(1728394052.764891) vcan0 133#00000000B6
(1728394052.764897) vcan0 136#0002000000000039
(1728394052.764901) vcan0 13A#0000000000000037
(1728394052.764905) vcan0 13F#000000050000003D
(1728394052.764909) vcan0 17C#0000000010000030
(1728394052.764913) vcan0 18E#00007A
(1728394052.764918) vcan0 294#040B0002CF5A000E
(1728394052.764922) vcan0 21E#03E83745220601
(1728394052.766557) vcan0 183#0000000300001035
(1728394052.766615) vcan0 143#6B6B00FF
(1728394052.768608) vcan0 095#800007F400000026
(1728394052.772662) vcan0 244#0000000151
(1728394052.772791) vcan0 166#D0320036
(1728394052.772800) vcan0 158#0000000000000037
(1728394052.772802) vcan0 161#000005500108003A
(1728394052.772804) vcan0 191#010010A1410029
(1728394052.772805) vcan0 18E#00004D
(1728394052.772809) vcan0 133#0000000089
(1728394052.773936) vcan0 136#000200000000000C
(1728394052.773986) vcan0 13A#000000000000000A
(1728394052.773988) vcan0 13F#0000000500000000
(1728394052.773990) vcan0 164#0000C01AA8000022
(1728394052.773992) vcan0 17C#0000000010000003
(1728394052.776039) vcan0 1CF#80050000000F
(1728394052.776085) vcan0 1DC#0200000C
(1728394052.776087) vcan0 183#0000000200001009
(1728394052.776088) vcan0 143#6B6B00C2
(1728394052.777533) vcan0 333#0000000000001E
(1728394052.778725) vcan0 095#800007F400000035
(1728394052.778800) vcan0 1A4#000000080000002F
(1728394052.778806) vcan0 1AA#7FFF00000000682F
(1728394052.780346) vcan0 1B0#000F0000000166
(1728394052.780391) vcan0 039#001B
(1728394052.780394) vcan0 1D0#000000000000000A
(1728394052.780396) vcan0 305#8026
(1728394052.782320) vcan0 166#D0320009
(1728394052.786393) vcan0 244#000000011E
(1728394052.787774) vcan0 158#000000000000000A
(1728394052.787782) vcan0 161#000005500108000D
(1728394052.787794) vcan0 191#010010A1410038
(1728394052.787796) vcan0 18E#00005C
(1728394052.787799) vcan0 133#0000000098
(1728394052.787802) vcan0 136#000200000000001B
(1728394052.787804) vcan0 13A#0000000000000019
(1728394052.787809) vcan0 13F#000000050000001F
(1728394052.787811) vcan0 164#0000C01AA8000031
(1728394052.787813) vcan0 17C#0000000010000012
(1728394052.787816) vcan0 183#0000000900001011
(1728394052.787818) vcan0 143#6B6B00D1
(1728394052.787822) vcan0 095#800007F400000008
(1728394052.791114) vcan0 166#D0320018
(1728394052.792461) vcan0 158#0000000000000019
(1728394052.792506) vcan0 161#000005500108001C
(1728394052.792509) vcan0 191#010010A141000B
(1728394052.794851) vcan0 164#0000C01AA8000004
(1728394052.794899) vcan0 133#00000000A7
(1728394052.794902) vcan0 136#000200000000002A
(1728394052.794904) vcan0 13A#0000000000000028
(1728394052.794906) vcan0 13F#000000050000002E
(1728394052.794907) vcan0 17C#0000000010000021
(1728394052.794909) vcan0 18E#00006B
(1728394052.794911) vcan0 1CF#80050000001E
(1728394052.794913) vcan0 039#002A
(1728394052.794915) vcan0 1DC#0200001B
(1728394052.794917) vcan0 320#000012
(1728394052.794924) vcan0 183#0000000600001023
(1728394052.797375) vcan0 324#7465000000000E1A
(1728394052.797431) vcan0 37C#FD00FD00097F001A
(1728394052.797437) vcan0 40C#0236323239533039
(1728394052.797443) vcan0 454#23EF36
(1728394052.797449) vcan0 143#6B6B00E0
(1728394052.797693) vcan0 244#00000001ED
(1728394052.798926) vcan0 095#800007F400000017
(1728394052.798947) vcan0 1A4#000000080000003E
(1728394052.798956) vcan0 1AA#7FFF00000000673F
(1728394052.800815) vcan0 1B0#000F0000000175
(1728394052.800872) vcan0 1D0#000000000000000A
(1728394052.800879) vcan0 166#D0320027
(1728394052.803621) vcan0 158#0000000000000028
(1728394052.803722) vcan0 161#000005500108002B
(1728394052.803731) vcan0 191#010010A141001A
(1728394052.803739) vcan0 133#00000000B6
(1728394052.803746) vcan0 136#0002000000000039
(1728394052.803754) vcan0 13A#0000000000000037
(1728394052.803761) vcan0 13F#000000050000003D
(1728394052.803768) vcan0 164#0000C01AA8000013
(1728394052.805294) vcan0 17C#0000000010000030
(1728394052.805391) vcan0 18E#00007A
(1728394052.805399) vcan0 294#040B0002CF5A001D
(1728394052.805404) vcan0 21E#03E83745220610
(1728394052.805410) vcan0 183#0000000400001034
(1728394052.807240) vcan0 143#6B6B00FF
(1728394052.808524) vcan0 095#800007F400000026
(1728394052.808600) vcan0 039#0039
(1728394052.809183) vcan0 244#00000001FE
(1728394052.811093) vcan0 166#D0320036
(1728394052.815414) vcan0 158#0000000000000037
(1728394052.816401) vcan0 161#000005500108003A
(1728394052.816410) vcan0 191#010010A1410029
(1728394052.816416) vcan0 164#0000C01AA8000022
(1728394052.816423) vcan0 133#0000000089
(1728394052.816430) vcan0 136#000200000000000C
(1728394052.816437) vcan0 13A#000000000000000A
(1728394052.816443) vcan0 13F#0000000500000000
(1728394052.816450) vcan0 17C#0000000010000003
(1728394052.816457) vcan0 18E#00004D
(1728394052.816464) vcan0 1CF#80050000002D
(1728394052.816470) vcan0 1DC#0200002A
(1728394052.816478) vcan0 183#0000000A00001001
(1728394052.816485) vcan0 143#6B6B00C2
(1728394052.819118) vcan0 095#800007F400000035
(1728394052.819171) vcan0 1A4#0000000800000001
(1728394052.819178) vcan0 1AA#7FFF000000006702
(1728394052.819185) vcan0 1B0#000F0000000148
(1728394052.821489) vcan0 244#000000011B
(1728394052.821595) vcan0 1D0#000000000000000A
(1728394052.821606) vcan0 166#D0320009
(1728394052.823888) vcan0 158#000000000000000A
(1728394052.823915) vcan0 161#000005500108000D
(1728394052.823921) vcan0 039#000C
(1728394052.823926) vcan0 191#010010A1410038
(1728394052.823932) vcan0 164#0000C01AA8000031
(1728394052.823937) vcan0 133#0000000098
(1728394052.823942) vcan0 136#000200000000001B
(1728394052.823947) vcan0 13A#0000000000000019
(1728394052.823953) vcan0 13F#000000050000001F
(1728394052.823958) vcan0 17C#0000000010000012
(1728394052.823964) vcan0 18E#00005C
(1728394052.826787) vcan0 309#00000000000000A2
(1728394052.826804) vcan0 428#01040000521C01
(1728394052.826809) vcan0 405#000004000000000B
(1728394052.826815) vcan0 183#0000000700001013
(1728394052.826820) vcan0 143#6B6B00D1
(1728394052.827940) vcan0 095#800007F400000008
(1728394052.831241) vcan0 166#D0320018
(1728394052.833546) vcan0 244#000000010F
(1728394052.835710) vcan0 158#0000000000000019
(1728394052.835738) vcan0 161#000005500108001C
(1728394052.835746) vcan0 191#010010A141000B
(1728394052.835753) vcan0 164#0000C01AA8000004
(1728394052.835761) vcan0 133#00000000A7
(1728394052.835769) vcan0 136#000200000000002A
(1728394052.835776) vcan0 13A#0000000000000028
(1728394052.835783) vcan0 13F#000000050000002E
(1728394052.835791) vcan0 17C#0000000010000021
(1728394052.835798) vcan0 18E#00006B
(1728394052.835806) vcan0 1CF#80050000003C
(1728394052.835813) vcan0 1DC#02000039
(1728394052.836150) vcan0 183#0000000500001024
(1728394052.836165) vcan0 039#001B
(1728394052.836175) vcan0 143#6B6B00E0
(1728394052.839345) vcan0 095#800007F400000017
(1728394052.839431) vcan0 1A4#0000000800000010
(1728394052.839439) vcan0 1AA#7FFF000000006810
(1728394052.839446) vcan0 1B0#000F0000000157
(1728394052.839453) vcan0 1D0#000000000000000A
(1728394052.841454) vcan0 166#D0320027
(1728394052.842738) vcan0 158#0000000000000028
(1728394052.842829) vcan0 161#000005500108002B
(1728394052.842840) vcan0 191#010010A141001A
(1728394052.842939) vcan0 164#0000C01AA8000013
(1728394052.842953) vcan0 133#00000000B6
(1728394052.844526) vcan0 136#0002000000000039
(1728394052.844616) vcan0 13A#0000000000000037
(1728394052.844625) vcan0 13F#000000050000003D
(1728394052.844631) vcan0 17C#0000000010000030
(1728394052.844638) vcan0 18E#00007A
(1728394052.844645) vcan0 294#040B0002CF5A002C
(1728394052.844652) vcan0 21E#03E8374522062F
(1728394052.846800) vcan0 183#0000000B0000103D
(1728394052.846887) vcan0 143#6B6B00FF
(1728394052.847101) vcan0 244#00000001FC
(1728394052.849226) vcan0 095#800007F400000026
(1728394052.850366) vcan0 039#002A
(1728394052.852156) vcan0 166#D0320036
(1728394052.852216) vcan0 158#0000000000000037
(1728394052.852219) vcan0 161#000005500108003A
(1728394052.854332) vcan0 191#010010A1410029
(1728394052.854555) vcan0 164#0000C01AA8000022
(1728394052.854605) vcan0 133#0000000089
(1728394052.854609) vcan0 136#000200000000000C
(1728394052.854611) vcan0 13A#000000000000000A
(1728394052.854614) vcan0 13F#0000000500000000
(1728394052.854616) vcan0 17C#0000000010000003
(1728394052.854619) vcan0 18E#00004D
(1728394052.854623) vcan0 1CF#80050000000F
(1728394052.854626) vcan0 1DC#0200000C
(1728394052.854629) vcan0 183#0000000800001003
(1728394052.856375) vcan0 143#6B6B00C2
(1728394052.858163) vcan0 244#0000000172
(1728394052.858284) vcan0 095#800007F400000035
(1728394052.859511) vcan0 1A4#000000080000002F
(1728394052.859518) vcan0 1AA#7FFF00000000682F
(1728394052.859520) vcan0 1B0#000F0000000166
(1728394052.859522) vcan0 1D0#000000000000000A
(1728394052.861262) vcan0 166#D0320009
(1728394052.863010) vcan0 158#000000000000000A
(1728394052.866280) vcan0 161#000005500108000D
(1728394052.869713) vcan0 191#010010A1410038
(1728394052.869829) vcan0 164#0000C01AA8000031
(1728394052.869831) vcan0 133#0000000098
(1728394052.869833) vcan0 136#000200000000001B
(1728394052.869835) vcan0 039#0039
(1728394052.869837) vcan0 13A#0000000000000019
(1728394052.869839) vcan0 13F#000000050000001F
(1728394052.869840) vcan0 17C#0000000010000012
(1728394052.869843) vcan0 18E#00005C
(1728394052.869848) vcan0 183#0000000D0000101D
(1728394052.869850) vcan0 143#6B6B00D1
(1728394052.869852) vcan0 095#800007F400000008
(1728394052.871250) vcan0 244#00000001B1
(1728394052.871777) vcan0 166#D0320018
(1728394052.871843) vcan0 158#0000000000000019
(1728394052.872981) vcan0 161#000005500108001C
(1728394052.872991) vcan0 191#010010A141000B
(1728394052.872993) vcan0 164#0000C01AA8000004
(1728394052.872995) vcan0 133#00000000A7
(1728394052.876207) vcan0 136#000200000000002A
(1728394052.876242) vcan0 13A#0000000000000028
(1728394052.876389) vcan0 13F#000000050000002E
(1728394052.876402) vcan0 17C#0000000010000021
(1728394052.876409) vcan0 18E#00006B
(1728394052.876415) vcan0 1CF#80050000001E
(1728394052.876422) vcan0 1DC#0200001B
(1728394052.876429) vcan0 183#0000000900001020
(1728394052.876436) vcan0 143#6B6B00E0
(1728394052.878179) vcan0 333#0000000000002D
(1728394052.878272) vcan0 039#000C
(1728394052.878283) vcan0 095#800007F400000017
(1728394052.879753) vcan0 1A4#000000080000003E
(1728394052.879833) vcan0 1AA#7FFF00000000673F
(1728394052.879841) vcan0 1B0#000F0000000175
(1728394052.879848) vcan0 1D0#000000000000000A
(1728394052.881102) vcan0 166#D0320027
(1728394052.882708) vcan0 244#00000001C8
(1728394052.882873) vcan0 158#0000000000000028
(1728394052.882886) vcan0 161#000005500108002B
(1728394052.882888) vcan0 191#010010A141001A
(1728394052.882889) vcan0 18E#00007A
(1728394052.882891) vcan0 133#00000000B6
(1728394052.882894) vcan0 136#0002000000000039
(1728394052.884182) vcan0 13A#0000000000000037
(1728394052.884195) vcan0 13F#000000050000003D
(1728394052.884197) vcan0 164#0000C01AA8000013
(1728394052.884198) vcan0 17C#0000000010000030
(1728394052.884200) vcan0 294#040B0002CF5A003B
(1728394052.885917) vcan0 305#8035
(1728394052.886706) vcan0 21E#03E8374522063E
(1728394052.887516) vcan0 183#0000000600001032
(1728394052.890666) vcan0 143#6B6B00FF
(1728394052.890671) vcan0 095#800007F400000026
(1728394052.890673) vcan0 166#D0320036
(1728394052.891828) vcan0 039#001B
(1728394052.891924) vcan0 158#0000000000000037
(1728394052.893422) vcan0 161#000005500108003A
(1728394052.893505) vcan0 191#010010A1410029
(1728394052.893507) vcan0 164#0000C01AA8000022
(1728394052.893509) vcan0 133#0000000089
(1728394052.893511) vcan0 136#000200000000000C
(1728394052.893512) vcan0 13A#000000000000000A
(1728394052.893514) vcan0 13F#0000000500000000
(1728394052.895022) vcan0 17C#0000000010000003
(1728394052.895112) vcan0 18E#00004D
(1728394052.895115) vcan0 1CF#80050000002D
(1728394052.895117) vcan0 1DC#0200002A
(1728394052.895119) vcan0 320#000021
(1728394052.895121) vcan0 183#0000000C0000100F
(1728394052.895122) vcan0 324#7465000000000E29
(1728394052.897560) vcan0 37C#FD00FD00097F0029
(1728394052.897563) vcan0 244#000000016E
(1728394052.897606) vcan0 143#6B6B00C2
(1728394052.898800) vcan0 095#800007F400000035
(1728394052.898847) vcan0 1A4#0000000800000001
(1728394052.898850) vcan0 1AA#7FFF000000006702
(1728394052.900521) vcan0 1B0#000F0000000148
(1728394052.900601) vcan0 1D0#000000000000000A
(1728394052.900603) vcan0 166#D0320009
(1728394052.902528) vcan0 158#000000000000000A
(1728394052.902626) vcan0 161#000005500108000D
(1728394052.902629) vcan0 191#010010A1410038
(1728394052.902631) vcan0 18E#00005C
(1728394052.905104) vcan0 133#0000000098
(1728394052.905988) vcan0 136#000200000000001B
(1728394052.905991) vcan0 13A#0000000000000019
(1728394052.905993) vcan0 13F#000000050000001F
(1728394052.905995) vcan0 164#0000C01AA8000031
(1728394052.905997) vcan0 17C#0000000010000012
(1728394052.905998) vcan0 183#0000000900001011
(1728394052.907109) vcan0 143#6B6B00D1
(1728394052.908981) vcan0 095#800007F400000008
(1728394052.910028) vcan0 244#0000000157
(1728394052.910905) vcan0 166#D0320018
(1728394052.912819) vcan0 158#0000000000000019
(1728394052.912843) vcan0 161#000005500108001C
(1728394052.912849) vcan0 039#002A
(1728394052.912854) vcan0 164#0000C01AA8000004
(1728394052.912859) vcan0 191#010010A141000B
(1728394052.912865) vcan0 133#00000000A7
(1728394052.915730) vcan0 136#000200000000002A
(1728394052.915782) vcan0 13A#0000000000000028
(1728394052.915792) vcan0 13F#000000050000002E
(1728394052.915802) vcan0 17C#0000000010000021
(1728394052.915812) vcan0 18E#00006B
(1728394052.915821) vcan0 1CF#80050000003C
(1728394052.915831) vcan0 1DC#02000039
(1728394052.915840) vcan0 183#0000000E0000102B
(1728394052.917365) vcan0 143#6B6B00E0
(1728394052.920359) vcan0 095#800007F400000017
(1728394052.920503) vcan0 1A4#0000000800000010
(1728394052.920514) vcan0 1AA#7FFF000000006810
(1728394052.920524) vcan0 1B0#000F0000000157
(1728394052.920534) vcan0 1D0#000000000000000A
(1728394052.920544) vcan0 166#D0320027
(1728394052.921432) vcan0 244#00000001BE
(1728394052.921926) vcan0 158#0000000000000028
(1728394052.923162) vcan0 161#000005500108002B
(1728394052.923169) vcan0 191#010010A141001A
(1728394052.923172) vcan0 164#0000C01AA8000013
(1728394052.923174) vcan0 133#00000000B6
(1728394052.923176) vcan0 136#0002000000000039
(1728394052.924411) vcan0 13A#0000000000000037
(1728394052.924427) vcan0 13F#000000050000003D
(1728394052.924475) vcan0 17C#0000000010000030
(1728394052.924483) vcan0 18E#00007A
(1728394052.924490) vcan0 294#040B0002CF5A000E
(1728394052.924497) vcan0 21E#03E83745220601
(1728394052.926146) vcan0 309#00000000000000B1
(1728394052.926202) vcan0 183#0000000A0000103E
(1728394052.926210) vcan0 039#0039
(1728394052.926217) vcan0 143#6B6B00FF
(1728394052.928618) vcan0 095#800007F400000026
(1728394052.931712) vcan0 166#D0320036
(1728394052.932468) vcan0 244#0000000101
(1728394052.932955) vcan0 158#0000000000000037
(1728394052.932964) vcan0 161#000005500108003A
(1728394052.932975) vcan0 191#010010A1410029
(1728394052.932977) vcan0 164#0000C01AA8000022
(1728394052.932980) vcan0 133#0000000089
(1728394052.932982) vcan0 136#000200000000000C
(1728394052.934446) vcan0 13A#000000000000000A
(1728394052.934460) vcan0 13F#0000000500000000
(1728394052.934463) vcan0 17C#0000000010000003
(1728394052.934465) vcan0 18E#00004D
(1728394052.934470) vcan0 1CF#80050000000F
(1728394052.934473) vcan0 1DC#0200000C
(1728394052.935651) vcan0 183#0000000700001004
(1728394052.937786) vcan0 143#6B6B00C2
(1728394052.937866) vcan0 095#800007F400000035
(1728394052.939524) vcan0 1A4#000000080000002F
(1728394052.939595) vcan0 1AA#7FFF00000000682F
(1728394052.939597) vcan0 1B0#000F0000000166
(1728394052.939599) vcan0 039#000C
(1728394052.939601) vcan0 1D0#000000000000000A
(1728394052.941249) vcan0 166#D0320009
(1728394052.946776) vcan0 244#0000000193
(1728394052.947057) vcan0 158#000000000000000A
(1728394052.948009) vcan0 161#000005500108000D
(1728394052.948012) vcan0 191#010010A1410038
(1728394052.948014) vcan0 18E#00005C
(1728394052.948015) vcan0 133#0000000098
(1728394052.948017) vcan0 136#000200000000001B
(1728394052.948019) vcan0 13A#0000000000000019
(1728394052.948022) vcan0 13F#000000050000001F
(1728394052.948024) vcan0 164#0000C01AA8000031
(1728394052.948026) vcan0 17C#0000000010000012
(1728394052.948028) vcan0 183#0000000D0000101D
(1728394052.948029) vcan0 143#6B6B00D1
(1728394052.948031) vcan0 095#800007F400000008
(1728394052.951106) vcan0 166#D0320018
(1728394052.954731) vcan0 158#0000000000000019
(1728394052.954745) vcan0 161#000005500108001C
(1728394052.954747) vcan0 191#010010A141000B
(1728394052.954751) vcan0 164#0000C01AA8000004
(1728394052.954753) vcan0 133#00000000A7
(1728394052.954756) vcan0 136#000200000000002A
(1728394052.954759) vcan0 13A#0000000000000028
(1728394052.954765) vcan0 13F#000000050000002E
(1728394052.954767) vcan0 17C#0000000010000021
(1728394052.954768) vcan0 18E#00006B
(1728394052.954771) vcan0 1CF#80050000001E
(1728394052.954772) vcan0 1DC#0200001B
(1728394052.954774) vcan0 183#0000000900001020
(1728394052.959877) vcan0 039#001B
(1728394052.960575) vcan0 143#6B6B00E0
(1728394052.960618) vcan0 095#800007F400000017
(1728394052.960620) vcan0 1A4#000000080000003E
(1728394052.960622) vcan0 1AA#7FFF00000000673F
(1728394052.960625) vcan0 1B0#000F0000000175
(1728394052.960629) vcan0 1D0#000000000000000A
(1728394052.960632) vcan0 166#D0320027
(1728394052.960719) vcan0 244#000000011B
(1728394052.963053) vcan0 158#0000000000000028
(1728394052.963270) vcan0 161#000005500108002B
(1728394052.963275) vcan0 191#010010A141001A
(1728394052.963277) vcan0 164#0000C01AA8000013
(1728394052.963280) vcan0 133#00000000B6
(1728394052.963283) vcan0 136#0002000000000039
(1728394052.963285) vcan0 13A#0000000000000037
(1728394052.964465) vcan0 13F#000000050000003D
(1728394052.964480) vcan0 17C#0000000010000030
(1728394052.964483) vcan0 18E#00007A
(1728394052.964486) vcan0 294#040B0002CF5A001D
(1728394052.964489) vcan0 21E#03E83745220610
(1728394052.966532) vcan0 183#0000000600001032
(1728394052.966548) vcan0 143#6B6B00FF
(1728394052.970340) vcan0 095#800007F400000026
(1728394052.972286) vcan0 166#D0320036
(1728394052.973461) vcan0 244#00000001FC
(1728394052.974731) vcan0 158#0000000000000037
(1728394052.977212) vcan0 161#000005500108003A
(1728394052.977215) vcan0 191#010010A1410029
(1728394052.977217) vcan0 164#0000C01AA8000022
(1728394052.977255) vcan0 133#0000000089
(1728394052.977257) vcan0 136#000200000000000C
(1728394052.977259) vcan0 13A#000000000000000A
(1728394052.977260) vcan0 13F#0000000500000000
(1728394052.977263) vcan0 17C#0000000010000003
(1728394052.977266) vcan0 18E#00004D
(1728394052.977268) vcan0 1CF#80050000002D
(1728394052.977269) vcan0 1DC#0200002A
(1728394052.977272) vcan0 183#0000000C0000100F
(1728394052.977273) vcan0 039#002A
(1728394052.977275) vcan0 143#6B6B00C2
(1728394052.977277) vcan0 333#0000000000003C
(1728394052.978358) vcan0 095#800007F400000035
(1728394052.980714) vcan0 1A4#0000000800000001
(1728394052.980803) vcan0 1AA#7FFF000000006702
(1728394052.980806) vcan0 1B0#000F0000000148
(1728394052.980809) vcan0 1D0#000000000000000A
(1728394052.980811) vcan0 166#D0320009
(1728394052.981871) vcan0 158#000000000000000A
(1728394052.983757) vcan0 161#000005500108000D
(1728394052.983863) vcan0 191#010010A1410038
(1728394052.983865) vcan0 18E#00005C
(1728394052.983867) vcan0 133#0000000098
(1728394052.983869) vcan0 136#000200000000001B
(1728394052.983871) vcan0 13A#0000000000000019
(1728394052.983872) vcan0 13F#000000050000001F
(1728394052.983875) vcan0 164#0000C01AA8000031
(1728394052.983876) vcan0 17C#0000000010000012
(1728394052.985253) vcan0 183#0000000900001011
(1728394052.986957) vcan0 244#0000000166
(1728394052.987369) vcan0 143#6B6B00D1
(1728394052.987837) vcan0 305#8008
(1728394052.987840) vcan0 095#800007F400000008
(1728394052.991665) vcan0 166#D0320018
(1728394052.993161) vcan0 158#0000000000000019
(1728394052.993178) vcan0 161#000005500108001C
(1728394052.993184) vcan0 191#010090A1410003
(1728394052.993190) vcan0 164#0000C01AA8000004
(1728394052.993195) vcan0 133#00000000A7
(1728394052.993200) vcan0 136#000200000000002A
(1728394052.993206) vcan0 13A#0000000000000028
(1728394052.995115) vcan0 13F#000000050000002E
(1728394052.995136) vcan0 17C#0000000010000021
(1728394052.995145) vcan0 18E#00006B
(1728394052.995153) vcan0 1CF#80050000003C
(1728394052.995161) vcan0 1DC#02000039
(1728394052.995169) vcan0 320#000030
(1728394052.995177) vcan0 324#7465000000000E38
(1728394052.995383) vcan0 183#0000000E0000102B
(1728394052.995394) vcan0 37C#FD00FD00097F0038
(1728394052.995402) vcan0 039#0039
(1728394052.996713) vcan0 143#6B6B00E0
(1728394052.998540) vcan0 095#800007F400000017
(1728394052.998628) vcan0 1A4#0000000800000010
(1728394052.998777) vcan0 244#0000000144
(1728394052.999848) vcan0 1AA#7FFF000000006810
(1728394052.999854) vcan0 1B0#000F0000000157
(1728394052.999856) vcan0 1D0#000000000000000A
(1728394053.002595) vcan0 166#D0320027
(1728394053.002665) vcan0 158#0000000000000028
(1728394053.002668) vcan0 161#000005500108002B
(1728394053.002670) vcan0 191#010090A1410012
(1728394053.002672) vcan0 133#00000000B6
(1728394053.004537) vcan0 136#0002000000000039
(1728394053.004587) vcan0 13A#0000000000000037
(1728394053.004589) vcan0 13F#000000050000003D
(1728394053.004591) vcan0 164#0000C01AA8000013
(1728394053.004593) vcan0 17C#0000000010000030
(1728394053.004595) vcan0 18E#00007A
(1728394053.004597) vcan0 294#040B0002CF5A002C
(1728394053.004598) vcan0 21E#03E8374522062F
(1728394053.006406) vcan0 183#0000000A0000103E
(1728394053.006470) vcan0 143#6B6B00FF
(1728394053.008423) vcan0 095#800007F400000026
(1728394053.010355) vcan0 039#000C
(1728394053.011301) vcan0 244#0000000143
(1728394053.013933) vcan0 166#D0320036
(1728394053.013941) vcan0 158#0000000000000037
(1728394053.013943) vcan0 161#000005500108003A
(1728394053.013945) vcan0 191#010090A1410021
(1728394053.013947) vcan0 164#0000C01AA8000022
(1728394053.013949) vcan0 133#0000000089
(1728394053.013950) vcan0 136#000200000000000C
(1728394053.013953) vcan0 13A#000000000000000A
(1728394053.013956) vcan0 13F#0000000500000000
(1728394053.013958) vcan0 17C#0000000010000003
(1728394053.013961) vcan0 18E#00004D
(1728394053.018542) vcan0 1CF#80050000000F
(1728394053.020039) vcan0 1DC#0200000C
(1728394053.020044) vcan0 183#0000000F0000100C
(1728394053.020046) vcan0 143#6B6B00C2
(1728394053.020048) vcan0 095#800007F400000035
(1728394053.020050) vcan0 1A4#000000080000002F
(1728394053.020053) vcan0 1AA#7FFF00000000682F
(1728394053.020054) vcan0 1B0#000F0000000166
(1728394053.020057) vcan0 1D0#000000000000000A
(1728394053.022100) vcan0 166#D0320009
(1728394053.023454) vcan0 158#000000000000000A
(1728394053.023457) vcan0 161#000005500108000D
(1728394053.023459) vcan0 191#010090A1410030
(1728394053.023461) vcan0 18E#00005C
(1728394053.023462) vcan0 133#0000000098
(1728394053.023464) vcan0 136#000200000000001B
(1728394053.023466) vcan0 13A#0000000000000019
(1728394053.023684) vcan0 244#000000017A
(1728394053.024978) vcan0 13F#000000050000001F
(1728394053.025039) vcan0 164#0000C01AA8000031
(1728394053.025043) vcan0 17C#0000000010000012
(1728394053.025046) vcan0 039#001B
(1728394053.025052) vcan0 309#0000000000000084
(1728394053.026951) vcan0 183#0000000B0000101F
(1728394053.027667) vcan0 143#6B6B00D1
(1728394053.030298) vcan0 095#800007F400000008
(1728394053.033310) vcan0 166#D0320018
(1728394053.033366) vcan0 158#0000000000000019
(1728394053.033369) vcan0 161#000005500108001C
(1728394053.033372) vcan0 191#010090A1410003
(1728394053.033375) vcan0 164#0000C01AA8000004
(1728394053.033377) vcan0 133#00000000A7
(1728394053.033389) vcan0 136#000200000000002A
(1728394053.033391) vcan0 13A#0000000000000028
(1728394053.034591) vcan0 13F#000000050000002E
(1728394053.034654) vcan0 17C#0000000010000021
(1728394053.034657) vcan0 18E#00006B
(1728394053.034660) vcan0 1CF#80050000001E
(1728394053.034663) vcan0 1DC#0200001B
(1728394053.034666) vcan0 183#0000000800001021
(1728394053.035718) vcan0 244#0000000173
(1728394053.036403) vcan0 143#6B6B00E0
(1728394053.039532) vcan0 095#800007F400000017
(1728394053.039587) vcan0 039#002A
(1728394053.039590) vcan0 1A4#000000080000003E
(1728394053.039592) vcan0 1AA#7FFF00000000673F
(1728394053.039594) vcan0 1B0#000F0000000175
(1728394053.039595) vcan0 1D0#000000000000000A
(1728394053.041488) vcan0 166#D0320027
(1728394053.043144) vcan0 158#0000000000000028
(1728394053.043223) vcan0 161#000005500108002B
(1728394053.043225) vcan0 191#010090A1410012
(1728394053.043227) vcan0 133#00000000B6
(1728394053.043229) vcan0 136#0002000000000039
(1728394053.043231) vcan0 13A#0000000000000037
(1728394053.045040) vcan0 13F#000000050000003D
(1728394053.045085) vcan0 164#0000C01AA8000013
(1728394053.045087) vcan0 17C#0000000010000030
(1728394053.045089) vcan0 18E#00007A
(1728394053.045091) vcan0 294#040B0002CF5A003B
(1728394053.045093) vcan0 21E#03E8374522063E
(1728394053.046224) vcan0 183#0000000600001032
(1728394053.046434) vcan0 143#6B6B00FF
(1728394053.048607) vcan0 095#800007F400000026
(1728394053.048858) vcan0 244#0000000124
(1728394053.051848) vcan0 166#D0320036
(1728394053.051917) vcan0 158#0000000000000037
(1728394053.053193) vcan0 161#000005500108003A
(1728394053.053226) vcan0 039#0039
(1728394053.053233) vcan0 191#010090A1410021
(1728394053.053239) vcan0 164#0000C01AA8000022
(1728394053.053244) vcan0 133#0000000089
(1728394053.053250) vcan0 136#000200000000000C
(1728394053.058544) vcan0 13A#000000000000000A
(1728394053.058885) vcan0 13F#0000000500000000
(1728394053.058893) vcan0 17C#0000000010000003
(1728394053.058898) vcan0 18E#00004D
(1728394053.058904) vcan0 1CF#80050000002D
(1728394053.058909) vcan0 1DC#0200002A
(1728394053.058914) vcan0 183#0000000400001007
(1728394053.058920) vcan0 143#6B6B00C2
(1728394053.058925) vcan0 095#800007F400000035
(1728394053.058930) vcan0 1A4#0000000800000001
(1728394053.058935) vcan0 1AA#7FFF000000006702
(1728394053.060710) vcan0 1B0#000F0000000148
(1728394053.060727) vcan0 1D0#000000000000000A
(1728394053.060730) vcan0 166#D0320009
(1728394053.062214) vcan0 244#0000000116
(1728394053.062470) vcan0 158#000000000000000A
(1728394053.062479) vcan0 161#000005500108000D
(1728394053.062481) vcan0 191#010090A1410030
(1728394053.063596) vcan0 164#0000C01AA8000031
(1728394053.063651) vcan0 133#0000000098
(1728394053.063653) vcan0 136#000200000000001B
(1728394053.063655) vcan0 13A#0000000000000019
(1728394053.063657) vcan0 13F#000000050000001F
(1728394053.065762) vcan0 17C#0000000010000012
(1728394053.065827) vcan0 18E#00005C
(1728394053.065830) vcan0 183#0000000300001017
(1728394053.068051) vcan0 143#6B6B00D1
(1728394053.068066) vcan0 039#000C
(1728394053.068069) vcan0 095#800007F400000008
(1728394053.072564) vcan0 166#D0320018
(1728394053.072728) vcan0 158#0000000000000019
(1728394053.072787) vcan0 161#000005500108001C
(1728394053.072791) vcan0 191#010090A1410003
(1728394053.072794) vcan0 164#0000C01AA8000004
(1728394053.074046) vcan0 133#00000000A7
(1728394053.074132) vcan0 136#000200000000002A
(1728394053.074134) vcan0 13A#0000000000000028
(1728394053.074136) vcan0 13F#000000050000002E
(1728394053.074138) vcan0 17C#0000000010000021
(1728394053.074140) vcan0 18E#00006B
(1728394053.075036) vcan0 244#0000000151
(1728394053.075282) vcan0 1CF#80050000003C
(1728394053.075341) vcan0 1DC#02000039
(1728394053.075344) vcan0 183#0000000A0000102F
(1728394053.076640) vcan0 143#6B6B00E0
(1728394053.076689) vcan0 333#0000000000000F
(1728394053.078628) vcan0 095#800007F400000017
(1728394053.078718) vcan0 1A4#0000000800000010
(1728394053.080743) vcan0 1AA#7FFF000000006810
(1728394053.081152) vcan0 1B0#000F0000000157
(1728394053.081251) vcan0 1D0#000000000000000A
(1728394053.081254) vcan0 166#D0320027
(1728394053.082652) vcan0 158#0000000000000028
(1728394053.082867) vcan0 161#000005500108002B
(1728394053.082909) vcan0 191#010090A1410012
(1728394053.082911) vcan0 133#00000000B6
(1728394053.082913) vcan0 136#0002000000000039
(1728394053.084576) vcan0 13A#0000000000000037
(1728394053.084680) vcan0 13F#000000050000003D
(1728394053.084683) vcan0 164#0000C01AA8000013
(1728394053.084685) vcan0 17C#0000000010000030
(1728394053.084686) vcan0 18E#00007A
(1728394053.084688) vcan0 294#040B0002CF5A000E
(1728394053.084690) vcan0 21E#03E83745220601
(1728394053.086023) vcan0 244#00000001FA
(1728394053.086119) vcan0 039#001B
(1728394053.086129) vcan0 183#0000000700001031
(1728394053.086131) vcan0 143#6B6B00FF
(1728394053.088833) vcan0 095#800007F400000026
(1728394053.091951) vcan0 166#D0320036
(1728394053.092171) vcan0 305#8017
(1728394053.092375) vcan0 158#0000000000000037
(1728394053.092461) vcan0 161#000005500108003A
(1728394053.092464) vcan0 191#010090A1410021
(1728394053.093733) vcan0 164#0000C01AA8000022
(1728394053.093836) vcan0 133#0000000089
(1728394053.093840) vcan0 136#000200000000000C
(1728394053.093842) vcan0 13A#000000000000000A
(1728394053.093844) vcan0 13F#0000000500000000
(1728394053.093846) vcan0 17C#0000000010000003
(1728394053.095072) vcan0 18E#00004D
(1728394053.095121) vcan0 1CF#80050000000F
(1728394053.095124) vcan0 1DC#0200000C
(1728394053.095126) vcan0 320#000003
(1728394053.095128) vcan0 324#7465000000000E0B
(1728394053.095129) vcan0 183#0000000D0000100E
(1728394053.096420) vcan0 37C#FD00FD00097F000B
(1728394053.096467) vcan0 40C#033133383439000D
(1728394053.096470) vcan0 454#23EF09
(1728394053.096472) vcan0 143#6B6B00C2
(1728394053.101696) vcan0 095#800007F400000035
(1728394053.101955) vcan0 244#0000000198
(1728394053.102959) vcan0 1A4#000000080000002F
(1728394053.102964) vcan0 1AA#7FFF00000000682F
(1728394053.102966) vcan0 1B0#000F0000000166
(1728394053.102968) vcan0 039#002A
(1728394053.102969) vcan0 1D0#000000000000000A
(1728394053.102971) vcan0 166#D0320009
(1728394053.102976) vcan0 158#000000000000000A
(1728394053.102978) vcan0 161#000005500108000D
(1728394053.102981) vcan0 191#010090A1410030
(1728394053.102984) vcan0 18E#00005C
(1728394053.102986) vcan0 133#0000000098
(1728394053.102989) vcan0 136#000200000000001B
(1728394053.104358) vcan0 13A#0000000000000019
(1728394053.104417) vcan0 13F#000000050000001F
(1728394053.104420) vcan0 164#0000C01AA8000031
(1728394053.104421) vcan0 17C#0000000010000012
(1728394053.105991) vcan0 183#0000000900001011
(1728394053.106200) vcan0 143#6B6B00D1
(1728394053.110306) vcan0 095#800007F400000008
(1728394053.111818) vcan0 166#D0320018
(1728394053.111886) vcan0 158#0000000000000019
(1728394053.113862) vcan0 161#000005500108001C
(1728394053.114580) vcan0 191#010090A1410003
(1728394053.114585) vcan0 164#0000C01AA8000004
(1728394053.114587) vcan0 133#00000000A7
(1728394053.114589) vcan0 039#0039
(1728394053.114591) vcan0 136#000200000000002A
(1728394053.114593) vcan0 13A#0000000000000028
(1728394053.114594) vcan0 13F#000000050000002E
(1728394053.114597) vcan0 17C#0000000010000021
(1728394053.114600) vcan0 18E#00006B
(1728394053.114602) vcan0 1CF#80050000001E
(1728394053.114605) vcan0 1DC#0200001B
(1728394053.116873) vcan0 244#000000019C
(1728394053.117104) vcan0 183#0000000600001023
(1728394053.117112) vcan0 143#6B6B00E0
(1728394053.118637) vcan0 095#800007F400000017
(1728394053.119465) vcan0 1A4#000000080000003E
(1728394053.119521) vcan0 1AA#7FFF00000000673F
(1728394053.119523) vcan0 1B0#000F0000000175
(1728394053.119525) vcan0 1D0#000000000000000A
(1728394053.121332) vcan0 166#D0320027
(1728394053.123012) vcan0 158#0000000000000028
(1728394053.123060) vcan0 161#000005500108002B
(1728394053.123063) vcan0 191#010090A1410012
(1728394053.123065) vcan0 164#0000C01AA8000013
(1728394053.123067) vcan0 133#00000000B6
(1728394053.123069) vcan0 136#0002000000000039
(1728394053.126030) vcan0 13A#0000000000000037
(1728394053.126090) vcan0 13F#000000050000003D
(1728394053.126092) vcan0 17C#0000000010000030
(1728394053.126094) vcan0 18E#00007A
(1728394053.126096) vcan0 294#040B0002CF5A001D
(1728394053.126098) vcan0 21E#03E83745220610
(1728394053.126099) vcan0 309#0000000000000093
(1728394053.126101) vcan0 428#01040000521C10
(1728394053.126104) vcan0 405#000004000000001A
(1728394053.126108) vcan0 183#0000000C0000103C
(1728394053.126109) vcan0 143#6B6B00FF
(1728394053.127210) vcan0 244#00000001B8
(1728394053.130324) vcan0 095#800007F400000026
(1728394053.130334) vcan0 039#000C
(1728394053.132535) vcan0 166#D0320036
(1728394053.132612) vcan0 158#0000000000000037
(1728394053.132616) vcan0 161#000005500108003A
(1728394053.132627) vcan0 191#010090A1410021
(1728394053.132630) vcan0 164#0000C01AA8000022
(1728394053.134361) vcan0 133#0000000089
(1728394053.134436) vcan0 136#000200000000000C
(1728394053.134439) vcan0 13A#000000000000000A
(1728394053.134442) vcan0 13F#0000000500000000
(1728394053.134445) vcan0 17C#0000000010000003
(1728394053.134448) vcan0 18E#00004D
(1728394053.134450) vcan0 1CF#80050000002D
(1728394053.134455) vcan0 1DC#0200002A
(1728394053.136719) vcan0 183#0000000900001002
(1728394053.136834) vcan0 143#6B6B00C2
(1728394053.138719) vcan0 095#800007F400000035
(1728394053.138813) vcan0 1A4#0000000800000001
(1728394053.138817) vcan0 1AA#7FFF000000006702
(1728394053.139103) vcan0 244#0000000165
(1728394053.140337) vcan0 1B0#000F0000000148
(1728394053.144415) vcan0 1D0#000000000000000A
(1728394053.144459) vcan0 166#D0320009
(1728394053.144462) vcan0 158#000000000000000A
(1728394053.144463) vcan0 161#000005500108000D
(1728394053.144465) vcan0 039#001B
(1728394053.144467) vcan0 191#010090A1410030
(1728394053.144469) vcan0 164#0000C01AA8000031
(1728394053.144472) vcan0 133#0000000098
(1728394053.144474) vcan0 136#000200000000001B
(1728394053.144476) vcan0 13A#0000000000000019
(1728394053.144480) vcan0 13F#000000050000001F
(1728394053.144481) vcan0 17C#0000000010000012
(1728394053.144483) vcan0 18E#00005C
(1728394053.147117) vcan0 183#0000000600001014
(1728394053.148676) vcan0 143#6B6B00D1
(1728394053.151128) vcan0 244#00000001CE
(1728394053.153219) vcan0 095#800007F400000008
(1728394053.153229) vcan0 166#D0320018
(1728394053.153232) vcan0 158#0000000000000019
(1728394053.153235) vcan0 161#000005500108001C
(1728394053.153238) vcan0 191#010090A1410003
(1728394053.153242) vcan0 164#0000C01AA8000004
(1728394053.153247) vcan0 133#00000000A7
(1728394053.153250) vcan0 136#000200000000002A
(1728394053.153252) vcan0 13A#0000000000000028
(1728394053.154934) vcan0 13F#000000050000002E
(1728394053.155036) vcan0 17C#0000000010000021
(1728394053.155039) vcan0 18E#00006B
(1728394053.155041) vcan0 1CF#80050000003C
(1728394053.155042) vcan0 1DC#02000039
(1728394053.155044) vcan0 183#0000000400001025
(1728394053.157512) vcan0 143#6B6B00E0
(1728394053.157570) vcan0 039#002A
(1728394053.160466) vcan0 095#800007F400000017
(1728394053.160518) vcan0 1A4#0000000800000010
(1728394053.160520) vcan0 1AA#7FFF000000006810
(1728394053.160522) vcan0 1B0#000F0000000157
(1728394053.160523) vcan0 1D0#000000000000000A
(1728394053.160525) vcan0 166#D0320027
(1728394053.162461) vcan0 158#0000000000000028
(1728394053.162471) vcan0 161#000005500108002B
(1728394053.162473) vcan0 191#010090A1410012
(1728394053.162888) vcan0 244#00000001A6
(1728394053.165809) vcan0 164#0000C01AA8000013
(1728394053.167388) vcan0 133#00000000B6
(1728394053.167390) vcan0 136#0002000000000039
(1728394053.167392) vcan0 13A#0000000000000037
(1728394053.167394) vcan0 13F#000000050000003D
(1728394053.167395) vcan0 17C#0000000010000030
(1728394053.167397) vcan0 18E#00007A
(1728394053.167399) vcan0 294#040B0002CF5A002C
(1728394053.167402) vcan0 21E#03E8374522062F
(1728394053.167404) vcan0 183#0000000300001035
(1728394053.167406) vcan0 143#6B6B00FF
(1728394053.168950) vcan0 095#800007F400000026
(1728394053.170829) vcan0 166#D0320036
(1728394053.172618) vcan0 039#0039
(1728394053.172680) vcan0 158#0000000000000037
(1728394053.172686) vcan0 161#000005500108003A
(1728394053.172692) vcan0 191#010090A1410021
(1728394053.172698) vcan0 164#0000C01AA8000022
(1728394053.172743) vcan0 133#0000000089
(1728394053.174481) vcan0 136#000200000000000C
(1728394053.174542) vcan0 13A#000000000000000A
(1728394053.174549) vcan0 13F#0000000500000000
(1728394053.174554) vcan0 17C#0000000010000003
(1728394053.174559) vcan0 18E#00004D
(1728394053.174565) vcan0 1CF#80050000000F
(1728394053.174570) vcan0 1DC#0200000C
(1728394053.174597) vcan0 244#000000011F
(1728394053.175817) vcan0 183#0000000A00001001
(1728394053.177604) vcan0 143#6B6B00C2
(1728394053.177668) vcan0 333#0000000000001E
(1728394053.180107) vcan0 095#800007F400000035
(1728394053.180197) vcan0 1A4#000000080000002F
(1728394053.180199) vcan0 1AA#7FFF00000000682F
(1728394053.180201) vcan0 1B0#000F0000000166
(1728394053.180203) vcan0 1D0#000000000000000A
(1728394053.181489) vcan0 166#D0320009
(1728394053.183514) vcan0 158#000000000000000A
(1728394053.183570) vcan0 161#000005500108000D
(1728394053.183579) vcan0 191#010090A1410030
(1728394053.183581) vcan0 133#0000000098
(1728394053.183582) vcan0 136#000200000000001B
(1728394053.183584) vcan0 13A#0000000000000019
(1728394053.183586) vcan0 13F#000000050000001F
(1728394053.185515) vcan0 164#0000C01AA8000031
(1728394053.185584) vcan0 17C#0000000010000012
(1728394053.185587) vcan0 18E#00005C
(1728394053.185589) vcan0 183#0000000700001013
(1728394053.185591) vcan0 039#000C
(1728394053.186073) vcan0 244#0000000157
(1728394053.186944) vcan0 143#6B6B00D1
(1728394053.188766) vcan0 095#800007F400000008
(1728394053.190853) vcan0 166#D0320018
(1728394053.194259) vcan0 158#0000000000000019
(1728394053.194882) vcan0 161#000005500108001C
(1728394053.194885) vcan0 191#010090A1410003
(1728394053.194887) vcan0 164#0000C01AA8000004
(1728394053.194889) vcan0 133#00000000A7
(1728394053.194890) vcan0 136#000200000000002A
(1728394053.194892) vcan0 13A#0000000000000028
(1728394053.194894) vcan0 13F#000000050000002E
(1728394053.194897) vcan0 17C#0000000010000021
(1728394053.194900) vcan0 18E#00006B
(1728394053.194901) vcan0 1CF#80050000001E
(1728394053.194903) vcan0 1DC#0200001B
(1728394053.194905) vcan0 320#000012
(1728394053.194907) vcan0 324#7465000000000E1A
(1728394053.194909) vcan0 183#0000000500001024
(1728394053.196500) vcan0 37C#FD00FD00097F001A
(1728394053.196585) vcan0 143#6B6B00E0
(1728394053.198328) vcan0 244#00000001C1
(1728394053.198330) vcan0 305#8026
(1728394053.198351) vcan0 095#800007F400000017
(1728394053.199744) vcan0 1A4#000000080000003E
(1728394053.199764) vcan0 1AA#7FFF00000000673F
(1728394053.199770) vcan0 1B0#000F0000000175
(1728394053.199776) vcan0 1D0#000000000000000A
(1728394053.201841) vcan0 166#D0320027
(1728394053.201885) vcan0 158#0000000000000028
(1728394053.204765) vcan0 161#000005500108002B
(1728394053.204794) vcan0 191#010090A1410012
(1728394053.204800) vcan0 18E#00007A
(1728394053.204806) vcan0 133#00000000B6
(1728394053.204812) vcan0 136#0002000000000039
(1728394053.204817) vcan0 13A#0000000000000037
(1728394053.204822) vcan0 13F#000000050000003D
(1728394053.204827) vcan0 164#0000C01AA8000013
(1728394053.204832) vcan0 17C#0000000010000030
(1728394053.204838) vcan0 294#040B0002CF5A003B
(1728394053.204844) vcan0 21E#03E8374522063E
(1728394053.205903) vcan0 039#001B
(1728394053.205920) vcan0 183#0000000B0000103D
(1728394053.207156) vcan0 143#6B6B00FF
(1728394053.209654) vcan0 095#800007F400000026
(1728394053.211901) vcan0 166#D0320036
(1728394053.211933) vcan0 158#0000000000000037
(1728394053.212568) vcan0 244#0000000156
(1728394053.214288) vcan0 161#000005500108003A
(1728394053.214307) vcan0 191#010090A1410021
(1728394053.214313) vcan0 164#0000C01AA8000022
(1728394053.214318) vcan0 133#0000000089
(1728394053.214324) vcan0 136#000200000000000C
(1728394053.214329) vcan0 13A#000000000000000A
(1728394053.214334) vcan0 13F#0000000500000000
(1728394053.214339) vcan0 17C#0000000010000003
(1728394053.214345) vcan0 18E#00004D
(1728394053.214350) vcan0 1CF#80050000002D
(1728394053.214355) vcan0 1DC#0200002A
(1728394053.215759) vcan0 183#0000000800001003
(1728394053.219376) vcan0 143#6B6B00C2
(1728394053.219423) vcan0 095#800007F400000035
(1728394053.219429) vcan0 1A4#0000000800000001
(1728394053.219470) vcan0 1AA#7FFF000000006702
(1728394053.219476) vcan0 1B0#000F0000000148
(1728394053.219481) vcan0 039#002A
(1728394053.219487) vcan0 1D0#000000000000000A
(1728394053.219578) vcan0 188#00000000
(1728394053.222793) vcan0 166#D0320009
(1728394053.222834) vcan0 158#000000000000000A
(1728394053.222841) vcan0 161#000005500108000D
(1728394053.222846) vcan0 191#010090A1410030
(1728394053.222852) vcan0 164#0000C01AA8000031
(1728394053.222857) vcan0 133#0000000098
(1728394053.224439) vcan0 136#000200000000001B
(1728394053.224465) vcan0 13A#0000000000000019
(1728394053.224471) vcan0 13F#000000050000001F
(1728394053.224476) vcan0 17C#0000000010000012
(1728394053.224482) vcan0 18E#00005C
(1728394053.224487) vcan0 309#00000000000000A2
(1728394053.224704) vcan0 244#0000000183
(1728394053.225873) vcan0 183#0000000D0000101D
(1728394053.227553) vcan0 143#6B6B00D1
(1728394053.229762) vcan0 095#800007F400000008
(1728394053.232170) vcan0 166#D0320018
(1728394053.235904) vcan0 158#0000000000000019
(1728394053.235953) vcan0 161#000005500108001C
(1728394053.235955) vcan0 191#010090A1410003
(1728394053.235957) vcan0 164#0000C01AA8000004
(1728394053.235959) vcan0 133#00000000A7
(1728394053.235969) vcan0 136#000200000000002A
(1728394053.235972) vcan0 13A#0000000000000028
(1728394053.235974) vcan0 13F#000000050000002E
(1728394053.235979) vcan0 17C#0000000010000021
(1728394053.235981) vcan0 18E#00006B
(1728394053.235982) vcan0 1CF#80050000003C
(1728394053.235984) vcan0 1DC#02000039
(1728394053.235985) vcan0 183#0000000900001020
(1728394053.235987) vcan0 039#0039
(1728394053.235989) vcan0 143#6B6B00E0
(1728394053.236152) vcan0 244#0000000159
(1728394053.237975) vcan0 095#800007F400000017
(1728394053.239077) vcan0 1A4#0000000800000010
(1728394053.239142) vcan0 1AA#7FFF000000006810
(1728394053.239149) vcan0 1B0#000F0000000157
(1728394053.241268) vcan0 1D0#000000000000000A
(1728394053.241333) vcan0 166#D0320027
(1728394053.244441) vcan0 158#0000000000000028
(1728394053.244523) vcan0 161#000005500108002B
(1728394053.244525) vcan0 191#010090A1410012
(1728394053.244527) vcan0 164#0000C01AA8000013
(1728394053.244530) vcan0 133#00000000B6
(1728394053.244531) vcan0 136#0002000000000039
(1728394053.244533) vcan0 13A#0000000000000037
(1728394053.244535) vcan0 13F#000000050000003D
(1728394053.244538) vcan0 17C#0000000010000030
(1728394053.244540) vcan0 18E#00007A
(1728394053.244542) vcan0 294#040B0002CF5A000E
(1728394053.244544) vcan0 21E#03E83745220601
(1728394053.247567) vcan0 183#0000000600001032
(1728394053.247575) vcan0 143#6B6B00FF
(1728394053.248453) vcan0 244#0000000165
(1728394053.248746) vcan0 095#800007F400000026
(1728394053.250483) vcan0 5A1#9600000000006210
(1728394053.250485) vcan0 039#000C
(1728394053.254607) vcan0 166#D0320036
(1728394053.259601) vcan0 158#0000000000000037
(1728394053.259623) vcan0 161#000005500108003A
(1728394053.259629) vcan0 191#010090A1410021
(1728394053.259634) vcan0 164#0000C01AA8000022
(1728394053.259640) vcan0 133#0000000089
(1728394053.259645) vcan0 136#000200000000000C
(1728394053.259650) vcan0 13A#000000000000000A
(1728394053.259655) vcan0 13F#0000000500000000
(1728394053.259660) vcan0 17C#0000000010000003
(1728394053.259666) vcan0 18E#00004D
(1728394053.259671) vcan0 1CF#80050000000F
(1728394053.259676) vcan0 1DC#0200000C
(1728394053.259682) vcan0 183#0000000C0000100F
(1728394053.259687) vcan0 143#6B6B00C2
(1728394053.259694) vcan0 095#800007F400000035
(1728394053.259700) vcan0 1A4#000000080000002F
(1728394053.259705) vcan0 1AA#7FFF00000000682F
(1728394053.259710) vcan0 1B0#000F0000000166
(1728394053.259715) vcan0 1D0#000000000000000A
(1728394053.265976) vcan0 166#D0320009
(1728394053.268493) vcan0 244#000000014F
(1728394053.271255) vcan0 158#000000000000000A
(1728394053.271273) vcan0 161#000005500108000D
(1728394053.271281) vcan0 191#010090A1410030
(1728394053.271288) vcan0 164#0000C01AA8000031
(1728394053.271297) vcan0 133#0000000098
(1728394053.271304) vcan0 136#000200000000001B
(1728394053.271312) vcan0 13A#0000000000000019
(1728394053.271319) vcan0 13F#000000050000001F
(1728394053.271375) vcan0 17C#0000000010000012
(1728394053.271383) vcan0 18E#00005C
(1728394053.271392) vcan0 039#001B
(1728394053.271399) vcan0 183#0000000900001011
(1728394053.271406) vcan0 143#6B6B00D1
(1728394053.271414) vcan0 095#800007F400000008
(1728394053.271422) vcan0 166#D0320018
(1728394053.272781) vcan0 158#0000000000000019
(1728394053.272857) vcan0 161#000005500108001C
(1728394053.272859) vcan0 191#010090A1410003
(1728394053.272861) vcan0 164#0000C01AA8000004
(1728394053.272863) vcan0 133#00000000A7
(1728394053.274716) vcan0 136#000200000000002A
(1728394053.274730) vcan0 13A#0000000000000028
(1728394053.274733) vcan0 13F#000000050000002E
(1728394053.274735) vcan0 17C#0000000010000021
(1728394053.274738) vcan0 18E#00006B
(1728394053.274741) vcan0 1CF#80050000001E
(1728394053.274743) vcan0 1DC#0200001B
(1728394053.274747) vcan0 183#0000000600001023
(1728394053.276180) vcan0 143#6B6B00E0
(1728394053.278385) vcan0 333#0000000000002D
(1728394053.278507) vcan0 039#002A
(1728394053.278510) vcan0 095#800007F400000017
(1728394053.280871) vcan0 244#000000013D
(1728394053.280958) vcan0 1A4#000000080000003E
(1728394053.281006) vcan0 1AA#7FFF00000000673F
(1728394053.281008) vcan0 1B0#000F0000000175
(1728394053.281010) vcan0 1D0#000000000000000A
(1728394053.281012) vcan0 166#D0320027
(1728394053.282386) vcan0 158#0000000000000028
(1728394053.282436) vcan0 161#000005500108002B
(1728394053.282438) vcan0 191#010090A1410012
(1728394053.283640) vcan0 133#00000000B6
(1728394053.283724) vcan0 136#0002000000000039
(1728394053.283726) vcan0 13A#0000000000000037
(1728394053.283728) vcan0 13F#000000050000003D
(1728394053.283729) vcan0 164#0000C01AA8000013
(1728394053.284826) vcan0 17C#0000000010000030
(1728394053.285004) vcan0 18E#00007A
(1728394053.285009) vcan0 294#040B0002CF5A001D
(1728394053.285012) vcan0 21E#03E83745220610
(1728394053.286832) vcan0 183#0000000C0000103C
(1728394053.286940) vcan0 143#6B6B00FF
(1728394053.288644) vcan0 095#800007F400000026
(1728394053.291375) vcan0 166#D0320036
(1728394053.291425) vcan0 039#0039
(1728394053.292423) vcan0 244#00000001EF
(1728394053.293700) vcan0 158#0000000000000037
(1728394053.293709) vcan0 161#000005500108003A
(1728394053.293711) vcan0 191#010010A1410029
(1728394053.293713) vcan0 164#0000C01AA8000022
(1728394053.293715) vcan0 133#0000000089
(1728394053.293717) vcan0 136#000200000000000C
(1728394053.293720) vcan0 13A#000000000000000A
(1728394053.293721) vcan0 13F#0000000500000000
(1728394053.293723) vcan0 17C#0000000010000003
(1728394053.295032) vcan0 18E#00004D
(1728394053.295086) vcan0 1CF#80050000002D
(1728394053.295089) vcan0 1DC#0200002A
(1728394053.295092) vcan0 320#000021
(1728394053.295095) vcan0 324#7465000000000E29
(1728394053.295097) vcan0 183#0000000900001002
(1728394053.296506) vcan0 37C#FD00FD00097F0029
(1728394053.296568) vcan0 143#6B6B00C2
(1728394053.298051) vcan0 095#800007F800000031
(1728394053.300838) vcan0 1A4#0000000800000001
(1728394053.304029) vcan0 1AA#7FFF000000006702
(1728394053.305799) vcan0 1B0#000F0000000148
(1728394053.306723) vcan0 1D0#000000000000000A
(1728394053.306729) vcan0 166#D0320009
(1728394053.306733) vcan0 158#000000000000000A
(1728394053.306735) vcan0 161#000005500108000D
(1728394053.306738) vcan0 191#010010A1410038
(1728394053.306741) vcan0 133#0000000098
(1728394053.306743) vcan0 136#000200000000001B
(1728394053.306746) vcan0 13A#0000000000000019
(1728394053.306748) vcan0 13F#000000050000001F
(1728394053.306752) vcan0 164#0000C01AA8000031
(1728394053.306756) vcan0 039#000C
(1728394053.306759) vcan0 17C#0000000010000012
(1728394053.306761) vcan0 18E#00005C
(1728394053.306764) vcan0 305#8035
(1728394053.306766) vcan0 183#0000000E0000101C
(1728394053.306769) vcan0 143#6B6B00D1
(1728394053.307057) vcan0 244#00000001C3
(1728394053.308714) vcan0 095#800007F800000004
(1728394053.312593) vcan0 166#D0320018
(1728394053.312647) vcan0 158#0000000000000019
(1728394053.312649) vcan0 161#000005500108001C
(1728394053.312652) vcan0 191#010010A141000B
(1728394053.312654) vcan0 164#0000C01AA8000004
(1728394053.314593) vcan0 133#00000000A7
(1728394053.314698) vcan0 136#000200000000002A
(1728394053.314701) vcan0 13A#0000000000000028
(1728394053.314704) vcan0 13F#000000050000002E
(1728394053.314707) vcan0 17C#0000000010000021
(1728394053.314709) vcan0 18E#00006B
(1728394053.314712) vcan0 1CF#80050000003C
(1728394053.314716) vcan0 1DC#02000039
(1728394053.316401) vcan0 183#0000000A0000102F
(1728394053.316495) vcan0 143#6B6B00E0
(1728394053.318600) vcan0 095#800007F800000013
(1728394053.318768) vcan0 039#001B
(1728394053.318772) vcan0 1A4#0000000800000010
(1728394053.318852) vcan0 244#0000000198
(1728394053.320432) vcan0 1AA#7FFF000000006810
(1728394053.320499) vcan0 1B0#000F0000000157
(1728394053.320502) vcan0 1D0#000000000000000A
(1728394053.322281) vcan0 166#D0320027
(1728394053.322355) vcan0 158#0000000000000028
(1728394053.322363) vcan0 161#000005500108002B
(1728394053.322370) vcan0 191#010010A141001A
(1728394053.323869) vcan0 164#0000C01AA8000013
(1728394053.323932) vcan0 133#00000000B6
(1728394053.323940) vcan0 136#0002000000000039
(1728394053.323947) vcan0 13A#0000000000000037
(1728394053.323953) vcan0 13F#000000050000003D
(1728394053.323960) vcan0 17C#0000000010000030
(1728394053.323967) vcan0 18E#00007A
(1728394053.325795) vcan0 294#040B0002CF5A002C
(1728394053.325852) vcan0 21E#03E8374522062F
(1728394053.325860) vcan0 309#00000000000000B1
(1728394053.325867) vcan0 183#0000000700001031
(1728394053.327576) vcan0 143#6B6B00FF
(1728394053.331783) vcan0 244#000000018D
(1728394053.333830) vcan0 095#800007F800000022
(1728394053.333838) vcan0 166#D0320036
(1728394053.333840) vcan0 158#0000000000000037
(1728394053.333842) vcan0 161#000005500108003A
(1728394053.333844) vcan0 191#010010A1410029
(1728394053.333845) vcan0 164#0000C01AA8000022
(1728394053.333853) vcan0 133#0000000089
(1728394053.333856) vcan0 136#000200000000000C
(1728394053.333858) vcan0 13A#000000000000000A
(1728394053.333860) vcan0 039#002A
(1728394053.333861) vcan0 13F#0000000500000000
(1728394053.333863) vcan0 17C#0000000010000003
(1728394053.340029) vcan0 18E#00004D
(1728394053.344006) vcan0 1CF#80050000000F
(1728394053.344235) vcan0 1DC#0200000C
(1728394053.344238) vcan0 183#0000000D0000100E
(1728394053.344239) vcan0 143#6B6B00C2
(1728394053.344241) vcan0 095#800007F800000031
(1728394053.344243) vcan0 1A4#000000080000002F
(1728394053.344245) vcan0 1AA#7FFF00000000682F
(1728394053.344248) vcan0 1B0#000F0000000166
(1728394053.344250) vcan0 1D0#000000000000000A
(1728394053.344252) vcan0 166#D0320009
(1728394053.344253) vcan0 158#000000000000000A
(1728394053.344255) vcan0 161#000005500108000D
(1728394053.344257) vcan0 191#010010A1410038
(1728394053.344259) vcan0 133#0000000098
(1728394053.344261) vcan0 136#000200000000001B
(1728394053.344263) vcan0 13A#0000000000000019
(1728394053.344266) vcan0 13F#000000050000001F
(1728394053.344273) vcan0 164#0000C01AA8000031
(1728394053.344274) vcan0 17C#0000000010000012
(1728394053.344276) vcan0 18E#00005C
(1728394053.346453) vcan0 183#0000000900001011
(1728394053.346507) vcan0 143#6B6B00D1
(1728394053.346750) vcan0 244#0000000172
(1728394053.348173) vcan0 039#0039
(1728394053.348199) vcan0 095#800007F400000008
(1728394053.350625) vcan0 166#D0320018
(1728394053.353500) vcan0 158#0000000000000019
(1728394053.353544) vcan0 161#000005500108001C
(1728394053.353551) vcan0 191#010010A141000B
(1728394053.353556) vcan0 164#0000C01AA8000004
(1728394053.353562) vcan0 133#00000000A7
(1728394053.353568) vcan0 136#000200000000002A
(1728394053.353573) vcan0 13A#0000000000000028
(1728394053.353578) vcan0 13F#000000050000002E
(1728394053.354873) vcan0 17C#0000000010000021
(1728394053.354911) vcan0 18E#00006B
(1728394053.354920) vcan0 1CF#80050000001E
(1728394053.354929) vcan0 1DC#0200001B
(1728394053.354938) vcan0 183#0000000E0000102B
(1728394053.357485) vcan0 143#6B6B00E0
(1728394053.358637) vcan0 095#800007F400000017
(1728394053.358687) vcan0 1A4#000000080000003E
(1728394053.359467) vcan0 244#00000001D0
(1728394053.365892) vcan0 1AA#7FFF00000000673F
(1728394053.365927) vcan0 1B0#000F0000000175
(1728394053.365934) vcan0 1D0#000000000000000A
(1728394053.365940) vcan0 166#D0320027
(1728394053.365977) vcan0 158#0000000000000028
(1728394053.365983) vcan0 161#000005500108002B
(1728394053.366450) vcan0 039#000C
(1728394053.366462) vcan0 191#010010A141001A
(1728394053.366468) vcan0 133#00000000B6
(1728394053.366474) vcan0 136#0002000000000039
(1728394053.366481) vcan0 13A#0000000000000037
(1728394053.366489) vcan0 13F#000000050000003D
(1728394053.366496) vcan0 164#0000C01AA8000013
(1728394053.366503) vcan0 17C#0000000010000030
(1728394053.366510) vcan0 18E#00007A
(1728394053.366517) vcan0 294#040B0002CF5A003B
(1728394053.366525) vcan0 21E#03E8374522063E
(1728394053.366532) vcan0 183#0000000A0000103E
(1728394053.366544) vcan0 143#6B6B00FF
(1728394053.368767) vcan0 095#800007F400000026
(1728394053.370979) vcan0 166#D0320036
(1728394053.372235) vcan0 244#0000000125
(1728394053.372663) vcan0 158#0000000000000037
(1728394053.372741) vcan0 161#000005500108003A
(1728394053.372743) vcan0 191#010010A1410029
(1728394053.372745) vcan0 164#0000C01AA8000022
(1728394053.373915) vcan0 133#0000000089
(1728394053.373923) vcan0 136#000200000000000C
(1728394053.373926) vcan0 13A#000000000000000A
(1728394053.373929) vcan0 13F#0000000500000000
(1728394053.373932) vcan0 17C#0000000010000003
(1728394053.373934) vcan0 18E#00004D
(1728394053.375309) vcan0 1CF#80050000002D
(1728394053.375360) vcan0 1DC#0200002A
(1728394053.375363) vcan0 183#0000000700001004
(1728394053.378890) vcan0 143#6B6B00C2
(1728394053.378973) vcan0 333#0000000000003C
(1728394053.378976) vcan0 095#800007F400000035
(1728394053.378978) vcan0 1A4#0000000800000001
(1728394053.378980) vcan0 1AA#7FFF000000006801
(1728394053.381285) vcan0 1B0#000F0000000148
(1728394053.381331) vcan0 1D0#000000000000000A
(1728394053.381333) vcan0 166#D0320009
(1728394053.381335) vcan0 039#001B
(1728394053.382535) vcan0 158#000000000000000A
(1728394053.382543) vcan0 161#000005500108000D
(1728394053.382545) vcan0 191#010010A1410038
(1728394053.387488) vcan0 133#0000000098
(1728394053.387508) vcan0 136#000200000000001B
(1728394053.387510) vcan0 13A#0000000000000019
(1728394053.387511) vcan0 13F#000000050000001F
(1728394053.387513) vcan0 164#0000C01AA8000031
(1728394053.387516) vcan0 17C#0000000010000012
(1728394053.387518) vcan0 18E#00005C
(1728394053.387520) vcan0 183#0000000D0000101D
(1728394053.387521) vcan0 143#6B6B00D1
(1728394053.388328) vcan0 244#0000000174
(1728394053.394965) vcan0 095#800007F800000004
(1728394053.394996) vcan0 166#D0320018
(1728394053.395002) vcan0 158#0000000000000019
(1728394053.395007) vcan0 161#000005500108001C
(1728394053.395013) vcan0 191#010010A141000B
(1728394053.395018) vcan0 164#0000C01AA8000004
(1728394053.395024) vcan0 133#00000000A7
(1728394053.395030) vcan0 136#000200000000002A
(1728394053.395035) vcan0 13A#0000000000000028
(1728394053.395040) vcan0 13F#000000050000002E
(1728394053.395045) vcan0 17C#0000000010000021
(1728394053.395051) vcan0 18E#00006B
(1728394053.395057) vcan0 1CF#80050000003C
(1728394053.395062) vcan0 1DC#02000039
(1728394053.395068) vcan0 320#000030
(1728394053.395073) vcan0 324#7465000000000E38
(1728394053.395078) vcan0 183#0000000900001020
(1728394053.397958) vcan0 37C#FD00FD00097F0038
(1728394053.397984) vcan0 039#002A
(1728394053.397990) vcan0 40C#0000000004000013
(1728394053.397996) vcan0 454#23EF18
(1728394053.398001) vcan0 143#6B6B00E0
(1728394053.398006) vcan0 095#800007F800000013
(1728394053.404831) vcan0 244#0000000130
(1728394053.404897) vcan0 1A4#0000000800000010
(1728394053.404916) vcan0 1AA#7FFF000000006810
(1728394053.404925) vcan0 1B0#000F0000000157
(1728394053.404934) vcan0 1D0#000000000000000A
(1728394053.404941) vcan0 166#D0320027
(1728394053.404950) vcan0 158#0000000000000028
(1728394053.404957) vcan0 161#000005500108002B
(1728394053.404965) vcan0 191#010010A141001A
(1728394053.404972) vcan0 133#00000000B6
(1728394053.404980) vcan0 136#0002000000000039
(1728394053.404988) vcan0 13A#0000000000000037
(1728394053.404995) vcan0 13F#000000050000003D
(1728394053.405003) vcan0 164#0000C01AA8000013
(1728394053.405010) vcan0 17C#0000000010000030
(1728394053.405017) vcan0 18E#00007A
(1728394053.405025) vcan0 294#040B0002CF5A000E
(1728394053.405074) vcan0 21E#03E83745220601
(1728394053.406530) vcan0 183#0000000600001032
(1728394053.406639) vcan0 143#6B6B00FF
(1728394053.407899) vcan0 095#800007F800000022
(1728394053.409088) vcan0 039#0039
(1728394053.409180) vcan0 305#8008
(1728394053.413027) vcan0 166#D0320036
(1728394053.413042) vcan0 158#0000000000000037
(1728394053.413044) vcan0 161#000005500108003A
(1728394053.413045) vcan0 191#010010A1410029
(1728394053.413047) vcan0 164#0000C01AA8000022
(1728394053.413049) vcan0 133#0000000089
(1728394053.413051) vcan0 136#000200000000000C
(1728394053.416387) vcan0 13A#000000000000000A
(1728394053.421565) vcan0 244#0000000186
(1728394053.426692) vcan0 13F#0000000500000000
(1728394053.426747) vcan0 17C#0000000010000003
(1728394053.426749) vcan0 18E#00004D
(1728394053.426752) vcan0 1CF#80050000000F
(1728394053.426754) vcan0 1DC#0200000C
(1728394053.426755) vcan0 183#0000000C0000100F
(1728394053.426758) vcan0 143#6B6B00C2
(1728394053.426760) vcan0 095#800007F800000031
(1728394053.426762) vcan0 1A4#000000080000002F
(1728394053.426764) vcan0 1AA#7FFF00000000682F
(1728394053.426765) vcan0 1B0#000F0000000166
(1728394053.426767) vcan0 1D0#000000000000000A
(1728394053.426769) vcan0 166#D0320009
(1728394053.426771) vcan0 158#000000000000000A
(1728394053.426775) vcan0 161#000005500108000D
(1728394053.426776) vcan0 191#010010A1410038
(1728394053.426781) vcan0 164#0000C01AA8000031
(1728394053.426783) vcan0 133#0000000098
(1728394053.426785) vcan0 136#000200000000001B
(1728394053.426786) vcan0 039#000C
(1728394053.426788) vcan0 13A#0000000000000019
(1728394053.426790) vcan0 13F#000000050000001F
(1728394053.426792) vcan0 17C#0000000010000012
(1728394053.426793) vcan0 18E#00005C
(1728394053.426796) vcan0 309#0000000000000084
(1728394053.426797) vcan0 428#01040000521C2F
(1728394053.426799) vcan0 405#0000040000000029
(1728394053.426801) vcan0 183#0000000900001011
(1728394053.426802) vcan0 143#6B6B00D1
(1728394053.428594) vcan0 095#800007F800000004
(1728394053.431763) vcan0 166#D0320018
(1728394053.431817) vcan0 158#0000000000000019
(1728394053.437081) vcan0 161#000005500108001C
(1728394053.437146) vcan0 191#010010A141000B
(1728394053.437199) vcan0 244#000000018A
(1728394053.437163) vcan0 164#0000C01AA8000004
(1728394053.437558) vcan0 133#00000000A7
(1728394053.437572) vcan0 136#000200000000002A
(1728394053.437579) vcan0 13A#0000000000000028
(1728394053.437587) vcan0 13F#000000050000002E
(1728394053.437592) vcan0 17C#0000000010000021
(1728394053.437598) vcan0 18E#00006B
(1728394053.437604) vcan0 1CF#80050000001E
(1728394053.437610) vcan0 1DC#0200001B
(1728394053.437615) vcan0 183#0000000E0000102B
(1728394053.437620) vcan0 143#6B6B00E0
(1728394053.439297) vcan0 095#800007F800000013
(1728394053.439348) vcan0 039#001B
(1728394053.439359) vcan0 1A4#000000080000003E
(1728394053.439369) vcan0 1AA#7FFF00000000673F
(1728394053.439378) vcan0 1B0#000F0000000175
(1728394053.439388) vcan0 1D0#000000000000000A
(1728394053.441926) vcan0 166#D0320027
(1728394053.441982) vcan0 158#0000000000000028
(1728394053.443504) vcan0 161#000005500108002B
(1728394053.443552) vcan0 191#010010A141001A
(1728394053.443555) vcan0 164#0000C01AA8000013
(1728394053.443556) vcan0 133#00000000B6
(1728394053.443558) vcan0 136#0002000000000039
(1728394053.443560) vcan0 13A#0000000000000037
(1728394053.443561) vcan0 13F#000000050000003D
(1728394053.446362) vcan0 17C#0000000010000030
(1728394053.446416) vcan0 18E#00007A
(1728394053.446418) vcan0 294#040B0002CF5A001D
(1728394053.446420) vcan0 21E#03E83745220610
(1728394053.446422) vcan0 183#0000000A0000103E
(1728394053.446424) vcan0 143#6B6B00FF
(1728394053.448080) vcan0 244#000000013F
(1728394053.448196) vcan0 095#800007F400000026
(1728394053.452660) vcan0 166#D0320036
(1728394053.452728) vcan0 158#0000000000000037
(1728394053.452731) vcan0 161#000005500108003A
(1728394053.452734) vcan0 039#002A
(1728394053.452737) vcan0 191#010010A1410029
(1728394053.452742) vcan0 164#0000C01AA8000022
(1728394053.454225) vcan0 133#0000000089
(1728394053.454303) vcan0 136#000200000000000C
(1728394053.454307) vcan0 13A#000000000000000A
(1728394053.454311) vcan0 13F#0000000500000000
(1728394053.454313) vcan0 17C#0000000010000003
(1728394053.454315) vcan0 18E#00004D
(1728394053.454317) vcan0 1CF#80050000002D
(1728394053.454319) vcan0 1DC#0200002A
(1728394053.455577) vcan0 183#0000000F0000100C
(1728394053.458492) vcan0 143#6B6B00C2
(1728394053.458582) vcan0 095#800007F400000035
(1728394053.458590) vcan0 1A4#0000000800000001
(1728394053.459789) vcan0 1AA#7FFF000000006801
(1728394053.459919) vcan0 1B0#000F0000000148
(1728394053.459928) vcan0 1D0#000000000000000A
(1728394053.461439) vcan0 166#D0320009
(1728394053.463049) vcan0 158#000000000000000A
(1728394053.466082) vcan0 161#000005500108000D
(1728394053.466095) vcan0 191#010010A1410038
(1728394053.466104) vcan0 164#0000C01AA8000031
(1728394053.466114) vcan0 133#0000000098
(1728394053.466123) vcan0 136#000200000000001B
(1728394053.466133) vcan0 13A#0000000000000019
(1728394053.466142) vcan0 13F#000000050000001F
(1728394053.466151) vcan0 17C#0000000010000012
(1728394053.466160) vcan0 18E#00005C
(1728394053.466169) vcan0 183#0000000B0000101F
(1728394053.466178) vcan0 143#6B6B00D1
(1728394053.470087) vcan0 039#0039
(1728394053.471679) vcan0 095#800007F400000008
(1728394053.471689) vcan0 166#D0320018
(1728394053.473663) vcan0 244#0000000146
(1728394053.473868) vcan0 158#0000000000000019
(1728394053.473878) vcan0 161#000005500108001C
(1728394053.473881) vcan0 191#010010A141000B
(1728394053.473884) vcan0 164#0000C01AA8000004
(1728394053.473887) vcan0 133#00000000A7
(1728394053.473889) vcan0 136#000200000000002A
(1728394053.473893) vcan0 13A#0000000000000028
(1728394053.473895) vcan0 13F#000000050000002E
(1728394053.473898) vcan0 17C#0000000010000021
(1728394053.473902) vcan0 18E#00006B
(1728394053.476257) vcan0 1CF#80050000003C
(1728394053.476496) vcan0 1DC#02000039
(1728394053.480835) vcan0 183#0000000800001021
(1728394053.480921) vcan0 143#6B6B00E0
(1728394053.480928) vcan0 333#0000000000000F
(1728394053.480935) vcan0 095#800007F400000017
(1728394053.480942) vcan0 1A4#0000000800000010
(1728394053.480949) vcan0 1AA#7FFF000000006810
(1728394053.480955) vcan0 1B0#000F0000000157
(1728394053.480962) vcan0 1D0#000000000000000A
(1728394053.480969) vcan0 166#D0320027
(1728394053.480975) vcan0 039#000C
(1728394053.486086) vcan0 158#0000000000000028
(1728394053.486151) vcan0 161#000005500108002B
(1728394053.486154) vcan0 191#010010A141001A
(1728394053.486163) vcan0 133#00000000B6
(1728394053.486165) vcan0 136#0002000000000039
(1728394053.486167) vcan0 13A#0000000000000037
(1728394053.486168) vcan0 13F#000000050000003D
(1728394053.486172) vcan0 164#0000C01AA8000013
(1728394053.486174) vcan0 17C#0000000010000030
(1728394053.486176) vcan0 18E#00007A
(1728394053.486178) vcan0 294#040B0002CF5A002C
(1728394053.486179) vcan0 21E#03E8374522062F
(1728394053.486182) vcan0 183#0000000600001032
(1728394053.486183) vcan0 143#6B6B00FF
(1728394053.486255) vcan0 244#00000001BD
(1728394053.489710) vcan0 095#800007F400000026
(1728394053.491729) vcan0 166#D0320036
(1728394053.492997) vcan0 158#0000000000000037
(1728394053.493008) vcan0 161#000005500108003A
(1728394053.493011) vcan0 191#010010A1410029
(1728394053.493014) vcan0 164#0000C01AA8000022
(1728394053.493016) vcan0 133#0000000089
(1728394053.493019) vcan0 136#000200000000000C
(1728394053.494427) vcan0 13A#000000000000000A
(1728394053.494529) vcan0 13F#0000000500000000
(1728394053.494532) vcan0 17C#0000000010000003
(1728394053.494534) vcan0 18E#00004D
(1728394053.494535) vcan0 1CF#80050000000F
(1728394053.494537) vcan0 1DC#0200000C
(1728394053.494539) vcan0 320#000003
(1728394053.496405) vcan0 324#7465000000000E0B
(1728394053.496418) vcan0 183#0000000400001007
(1728394053.496420) vcan0 37C#FD00FD00097F000B
(1728394053.496422) vcan0 143#6B6B00C2
(1728394053.498620) vcan0 244#00000001AE
(1728394053.500483) vcan0 095#800007F400000035
(1728394053.500494) vcan0 1A4#000000080000002F
(1728394053.500496) vcan0 1AA#7FFF00000000682F
(1728394053.500497) vcan0 1B0#000F0000000166
(1728394053.500499) vcan0 1D0#000000000000000A
(1728394053.500501) vcan0 039#001B
(1728394053.503321) vcan0 166#D0320009
(1728394053.503339) vcan0 158#000000000000000A
(1728394053.503341) vcan0 161#000005500108000D
(1728394053.503344) vcan0 191#010010A1410038
(1728394053.503346) vcan0 133#0000000098
(1728394053.503349) vcan0 136#000200000000001B
(1728394053.503352) vcan0 13A#0000000000000019
(1728394053.503353) vcan0 13F#000000050000001F
(1728394053.505557) vcan0 164#0000C01AA8000031
(1728394053.505571) vcan0 17C#0000000010000012
(1728394053.505573) vcan0 18E#00005C
(1728394053.505575) vcan0 183#0000000300001017
(1728394053.507014) vcan0 143#6B6B00D1
(1728394053.508466) vcan0 095#800007F400000008
(1728394053.511201) vcan0 244#00000001DE
(1728394053.511225) vcan0 166#D0320018
(1728394053.512527) vcan0 158#0000000000000019
(1728394053.512543) vcan0 161#000005500108001C
(1728394053.512546) vcan0 191#010010A141000B
(1728394053.512548) vcan0 164#0000C01AA8000004
(1728394053.514183) vcan0 133#00000000A7
(1728394053.514195) vcan0 136#000200000000002A
(1728394053.514197) vcan0 13A#0000000000000028
(1728394053.514199) vcan0 13F#000000050000002E
(1728394053.514202) vcan0 17C#0000000010000021
(1728394053.514204) vcan0 18E#00006B
(1728394053.514206) vcan0 1CF#80050000001E
(1728394053.514208) vcan0 039#002A
(1728394053.515809) vcan0 1DC#0200001B
(1728394053.515863) vcan0 183#0000000A0000102F
(1728394053.515865) vcan0 305#8017
(1728394053.517769) vcan0 143#6B6B00E0
(1728394053.519575) vcan0 095#800007F400000017
(1728394053.519581) vcan0 1A4#000000080000003E
(1728394053.519583) vcan0 1AA#7FFF00000000673F
(1728394053.519585) vcan0 1B0#000F0000000175
(1728394053.519586) vcan0 1D0#000000000000000A
(1728394053.522503) vcan0 166#D0320027
